time,V(vin),V(vout)
0.00E+00,0.00E+00,1.81E-05
1.00E-14,1.00E-04,1.81E-05
2.00E-14,2.00E-04,1.81E-05
1.00E-12,1.00E-02,1.81E-05
1.01E-12,1.00E-02,1.81E-05
1.04E-12,1.00E-02,1.81E-05
4.94E-10,1.00E-02,2.70E-05
9.86E-10,1.00E-02,3.58E-05
1.48E-09,1.00E-02,4.46E-05
1.97E-09,1.00E-02,5.33E-05
2.46E-09,1.00E-02,6.19E-05
2.96E-09,1.00E-02,7.04E-05
3.45E-09,1.00E-02,7.89E-05
6.90E-09,1.00E-02,1.38E-04
1.22E-08,1.00E-02,2.27E-04
1.83E-08,1.00E-02,3.33E-04
2.54E-08,1.00E-02,4.62E-04
3.49E-08,1.00E-02,6.52E-04
4.71E-08,1.00E-02,9.26E-04
6.07E-08,1.00E-02,1.28E-03
7.67E-08,1.00E-02,1.74E-03
9.54E-08,1.00E-02,2.34E-03
1.18E-07,1.00E-02,3.12E-03
1.46E-07,1.00E-02,4.09E-03
1.80E-07,1.00E-02,5.22E-03
2.20E-07,1.00E-02,6.42E-03
2.76E-07,1.00E-02,7.72E-03
3.28E-07,1.00E-02,8.52E-03
3.95E-07,1.00E-02,9.00E-03
4.63E-07,1.00E-02,9.05E-03
5.30E-07,1.00E-02,8.82E-03
6.01E-07,1.00E-02,8.42E-03
6.83E-07,1.00E-02,7.96E-03
7.89E-07,1.00E-02,7.46E-03
9.10E-07,1.00E-02,7.05E-03
1.05E-06,1.00E-02,6.69E-03
1.21E-06,1.00E-02,6.34E-03
1.40E-06,1.00E-02,5.91E-03
1.61E-06,1.00E-02,5.42E-03
1.81E-06,1.00E-02,4.95E-03
2.02E-06,1.00E-02,4.49E-03
2.22E-06,1.00E-02,4.05E-03
2.43E-06,1.00E-02,3.63E-03
2.63E-06,1.00E-02,3.22E-03
2.84E-06,1.00E-02,2.82E-03
3.04E-06,1.00E-02,2.44E-03
3.25E-06,1.00E-02,2.07E-03
3.45E-06,1.00E-02,1.71E-03
3.66E-06,1.00E-02,1.37E-03
3.86E-06,1.00E-02,1.04E-03
4.07E-06,1.00E-02,7.29E-04
4.27E-06,1.00E-02,4.30E-04
4.48E-06,1.00E-02,1.44E-04
4.68E-06,1.00E-02,-1.29E-04
4.89E-06,1.00E-02,-3.88E-04
5.09E-06,1.00E-02,-6.35E-04
5.30E-06,1.00E-02,-8.68E-04
5.50E-06,1.00E-02,-1.09E-03
5.71E-06,1.00E-02,-1.30E-03
5.91E-06,1.00E-02,-1.49E-03
6.12E-06,1.00E-02,-1.68E-03
6.32E-06,1.00E-02,-1.85E-03
6.53E-06,1.00E-02,-2.01E-03
6.73E-06,1.00E-02,-2.16E-03
6.94E-06,1.00E-02,-2.30E-03
7.14E-06,1.00E-02,-2.43E-03
7.35E-06,1.00E-02,-2.54E-03
7.55E-06,1.00E-02,-2.65E-03
7.76E-06,1.00E-02,-2.75E-03
7.96E-06,1.00E-02,-2.84E-03
8.17E-06,1.00E-02,-2.91E-03
8.37E-06,1.00E-02,-2.98E-03
8.78E-06,1.00E-02,-3.09E-03
9.19E-06,1.00E-02,-3.17E-03
9.60E-06,1.00E-02,-3.22E-03
1.00E-05,1.00E-02,-3.24E-03
1.04E-05,1.00E-02,-3.23E-03
1.08E-05,1.00E-02,-3.20E-03
1.12E-05,1.00E-02,-3.15E-03
1.17E-05,1.00E-02,-3.07E-03
1.23E-05,1.00E-02,-2.93E-03
1.29E-05,1.00E-02,-2.75E-03
1.35E-05,1.00E-02,-2.54E-03
1.41E-05,1.00E-02,-2.31E-03
1.45E-05,1.00E-02,-2.15E-03
1.49E-05,1.00E-02,-1.98E-03
1.53E-05,1.00E-02,-1.80E-03
1.58E-05,1.00E-02,-1.62E-03
1.60E-05,1.00E-02,-1.53E-03
1.62E-05,1.00E-02,-1.44E-03
1.64E-05,1.00E-02,-1.35E-03
1.66E-05,1.00E-02,-1.26E-03
1.68E-05,1.00E-02,-1.16E-03
1.70E-05,1.00E-02,-1.07E-03
1.72E-05,1.00E-02,-9.82E-04
1.74E-05,1.00E-02,-8.91E-04
1.76E-05,1.00E-02,-8.01E-04
1.78E-05,1.00E-02,-7.10E-04
1.80E-05,1.00E-02,-6.21E-04
1.82E-05,1.00E-02,-5.32E-04
1.84E-05,1.00E-02,-4.44E-04
1.86E-05,1.00E-02,-3.57E-04
1.88E-05,1.00E-02,-2.71E-04
1.90E-05,1.00E-02,-1.86E-04
1.94E-05,1.00E-02,-1.97E-05
1.99E-05,1.00E-02,1.42E-04
2.03E-05,1.00E-02,2.97E-04
2.05E-05,1.00E-02,3.73E-04
2.07E-05,1.00E-02,4.47E-04
2.09E-05,1.00E-02,5.19E-04
2.11E-05,1.00E-02,5.90E-04
2.13E-05,1.00E-02,6.59E-04
2.15E-05,1.00E-02,7.26E-04
2.17E-05,1.00E-02,7.91E-04
2.19E-05,1.00E-02,8.55E-04
2.21E-05,1.00E-02,9.17E-04
2.23E-05,1.00E-02,9.77E-04
2.25E-05,1.00E-02,1.03E-03
2.27E-05,1.00E-02,1.09E-03
2.29E-05,1.00E-02,1.14E-03
2.31E-05,1.00E-02,1.20E-03
2.33E-05,1.00E-02,1.25E-03
2.36E-05,1.00E-02,1.30E-03
2.38E-05,1.00E-02,1.34E-03
2.40E-05,1.00E-02,1.39E-03
2.42E-05,1.00E-02,1.43E-03
2.44E-05,1.00E-02,1.47E-03
2.46E-05,1.00E-02,1.51E-03
2.48E-05,1.00E-02,1.54E-03
2.50E-05,1.00E-02,1.58E-03
2.52E-05,1.00E-02,1.61E-03
2.54E-05,1.00E-02,1.64E-03
2.56E-05,1.00E-02,1.67E-03
2.58E-05,1.00E-02,1.69E-03
2.60E-05,1.00E-02,1.72E-03
2.62E-05,1.00E-02,1.74E-03
2.64E-05,1.00E-02,1.76E-03
2.66E-05,1.00E-02,1.78E-03
2.68E-05,1.00E-02,1.80E-03
2.70E-05,1.00E-02,1.81E-03
2.72E-05,1.00E-02,1.83E-03
2.77E-05,1.00E-02,1.85E-03
2.81E-05,1.00E-02,1.86E-03
2.85E-05,1.00E-02,1.87E-03
2.89E-05,1.00E-02,1.87E-03
2.93E-05,1.00E-02,1.86E-03
2.99E-05,1.00E-02,1.84E-03
3.05E-05,1.00E-02,1.80E-03
3.11E-05,1.00E-02,1.75E-03
3.18E-05,1.00E-02,1.70E-03
3.22E-05,1.00E-02,1.65E-03
3.26E-05,1.00E-02,1.60E-03
3.30E-05,1.00E-02,1.55E-03
3.34E-05,1.00E-02,1.49E-03
3.38E-05,1.00E-02,1.43E-03
3.42E-05,1.00E-02,1.37E-03
3.46E-05,1.00E-02,1.30E-03
3.52E-05,1.00E-02,1.21E-03
3.57E-05,1.00E-02,1.11E-03
3.62E-05,1.00E-02,1.02E-03
3.67E-05,1.00E-02,9.18E-04
3.73E-05,1.00E-02,8.17E-04
3.78E-05,1.00E-02,7.14E-04
3.83E-05,1.00E-02,6.09E-04
3.89E-05,1.00E-02,4.87E-04
3.95E-05,1.00E-02,3.64E-04
4.02E-05,1.00E-02,2.44E-04
4.08E-05,1.00E-02,1.27E-04
4.14E-05,1.00E-02,1.30E-05
4.20E-05,1.00E-02,-9.83E-05
4.26E-05,1.00E-02,-2.07E-04
4.32E-05,1.00E-02,-3.12E-04
4.39E-05,1.00E-02,-4.11E-04
4.44E-05,1.00E-02,-5.00E-04
4.50E-05,1.00E-02,-5.83E-04
4.56E-05,1.00E-02,-6.61E-04
4.62E-05,1.00E-02,-7.32E-04
4.68E-05,1.00E-02,-7.97E-04
4.74E-05,1.00E-02,-8.56E-04
4.80E-05,1.00E-02,-9.08E-04
4.87E-05,1.00E-02,-9.62E-04
4.94E-05,1.00E-02,-1.01E-03
5.01E-05,1.00E-02,-1.04E-03
5.08E-05,1.00E-02,-1.06E-03
5.15E-05,1.00E-02,-1.08E-03
5.22E-05,1.00E-02,-1.08E-03
5.29E-05,1.00E-02,-1.07E-03
5.35E-05,1.00E-02,-1.06E-03
5.40E-05,1.00E-02,-1.04E-03
5.46E-05,1.00E-02,-1.02E-03
5.52E-05,1.00E-02,-9.91E-04
5.58E-05,1.00E-02,-9.56E-04
5.64E-05,1.00E-02,-9.16E-04
5.70E-05,1.00E-02,-8.71E-04
5.75E-05,1.00E-02,-8.23E-04
5.81E-05,1.00E-02,-7.73E-04
5.86E-05,1.00E-02,-7.20E-04
5.92E-05,1.00E-02,-6.64E-04
5.98E-05,1.00E-02,-6.05E-04
6.03E-05,1.00E-02,-5.43E-04
6.09E-05,1.00E-02,-4.79E-04
6.16E-05,1.00E-02,-3.91E-04
6.23E-05,1.00E-02,-3.03E-04
6.31E-05,1.00E-02,-2.16E-04
6.38E-05,1.00E-02,-1.28E-04
6.45E-05,1.00E-02,-4.06E-05
6.53E-05,1.00E-02,4.68E-05
6.60E-05,1.00E-02,1.34E-04
6.69E-05,1.00E-02,2.42E-04
6.79E-05,1.00E-02,3.42E-04
6.88E-05,1.00E-02,4.33E-04
6.98E-05,1.00E-02,5.16E-04
7.07E-05,1.00E-02,5.90E-04
7.16E-05,1.00E-02,6.57E-04
7.26E-05,1.00E-02,7.14E-04
7.33E-05,1.00E-02,7.52E-04
7.41E-05,1.00E-02,7.82E-04
7.48E-05,1.00E-02,8.04E-04
7.56E-05,1.00E-02,8.20E-04
7.64E-05,1.00E-02,8.28E-04
7.71E-05,1.00E-02,8.29E-04
7.79E-05,1.00E-02,8.22E-04
7.85E-05,1.00E-02,8.12E-04
7.91E-05,1.00E-02,7.97E-04
7.97E-05,1.00E-02,7.79E-04
8.04E-05,1.00E-02,7.57E-04
8.10E-05,1.00E-02,7.32E-04
8.16E-05,1.00E-02,7.02E-04
8.22E-05,1.00E-02,6.69E-04
8.28E-05,1.00E-02,6.32E-04
8.34E-05,1.00E-02,5.94E-04
8.40E-05,1.00E-02,5.54E-04
8.47E-05,1.00E-02,5.12E-04
8.53E-05,1.00E-02,4.68E-04
8.59E-05,1.00E-02,4.22E-04
8.65E-05,1.00E-02,3.75E-04
8.74E-05,1.00E-02,3.02E-04
8.83E-05,1.00E-02,2.30E-04
8.92E-05,1.00E-02,1.60E-04
9.01E-05,1.00E-02,9.20E-05
9.11E-05,1.00E-02,2.52E-05
9.20E-05,1.00E-02,-4.01E-05
9.29E-05,1.00E-02,-1.04E-04
9.38E-05,1.00E-02,-1.64E-04
9.47E-05,1.00E-02,-2.18E-04
9.57E-05,1.00E-02,-2.65E-04
9.66E-05,1.00E-02,-3.05E-04
9.76E-05,1.00E-02,-3.39E-04
9.85E-05,1.00E-02,-3.67E-04
9.94E-05,1.00E-02,-3.88E-04
1.00E-04,1.00E-02,-3.99E-04
1.01E-04,1.00E-02,-4.05E-04
1.02E-04,1.00E-02,-4.07E-04
1.02E-04,1.00E-02,-4.05E-04
1.03E-04,1.00E-02,-3.97E-04
1.04E-04,1.00E-02,-3.86E-04
1.05E-04,1.00E-02,-3.70E-04
1.05E-04,1.00E-02,-3.52E-04
1.06E-04,1.00E-02,-3.32E-04
1.07E-04,1.00E-02,-3.10E-04
1.07E-04,1.00E-02,-2.86E-04
1.08E-04,1.00E-02,-2.59E-04
1.09E-04,1.00E-02,-2.31E-04
1.09E-04,1.00E-02,-2.00E-04
1.10E-04,1.00E-02,-1.55E-04
1.11E-04,1.00E-02,-1.10E-04
1.12E-04,1.00E-02,-6.53E-05
1.13E-04,1.00E-02,-2.02E-05
1.14E-04,1.00E-02,2.52E-05
1.15E-04,1.00E-02,7.08E-05
1.16E-04,1.00E-02,1.17E-04
1.17E-04,1.00E-02,1.68E-04
1.18E-04,1.00E-02,2.15E-04
1.19E-04,1.00E-02,2.57E-04
1.20E-04,1.00E-02,2.93E-04
1.21E-04,1.00E-02,3.25E-04
1.22E-04,1.00E-02,3.51E-04
1.23E-04,1.00E-02,3.73E-04
1.24E-04,1.00E-02,3.84E-04
1.25E-04,1.00E-02,3.92E-04
1.26E-04,1.00E-02,3.95E-04
1.27E-04,1.00E-02,3.95E-04
1.28E-04,1.00E-02,3.91E-04
1.29E-04,1.00E-02,3.83E-04
1.30E-04,1.00E-02,3.71E-04
1.30E-04,1.00E-02,3.57E-04
1.31E-04,1.00E-02,3.41E-04
1.32E-04,1.00E-02,3.23E-04
1.33E-04,1.00E-02,3.04E-04
1.34E-04,1.00E-02,2.83E-04
1.34E-04,1.00E-02,2.59E-04
1.35E-04,1.00E-02,2.34E-04
1.36E-04,1.00E-02,1.94E-04
1.38E-04,1.00E-02,1.54E-04
1.39E-04,1.00E-02,1.15E-04
1.40E-04,1.00E-02,7.81E-05
1.41E-04,1.00E-02,4.19E-05
1.42E-04,1.00E-02,6.83E-06
1.44E-04,1.00E-02,-2.71E-05
1.45E-04,1.00E-02,-5.30E-05
1.46E-04,1.00E-02,-7.50E-05
1.47E-04,1.00E-02,-9.30E-05
1.48E-04,1.00E-02,-1.07E-04
1.49E-04,1.00E-02,-1.17E-04
1.50E-04,1.00E-02,-1.24E-04
1.51E-04,1.00E-02,-1.26E-04
1.52E-04,1.00E-02,-1.24E-04
1.53E-04,1.00E-02,-1.21E-04
1.54E-04,1.00E-02,-1.14E-04
1.55E-04,1.00E-02,-1.06E-04
1.56E-04,1.00E-02,-9.52E-05
1.57E-04,1.00E-02,-8.23E-05
1.57E-04,1.00E-02,-6.71E-05
1.58E-04,1.00E-02,-4.77E-05
1.60E-04,1.00E-02,-2.78E-05
1.61E-04,1.00E-02,-7.34E-06
1.62E-04,1.00E-02,1.37E-05
1.63E-04,1.00E-02,3.52E-05
1.64E-04,1.00E-02,5.73E-05
1.65E-04,1.00E-02,7.99E-05
1.66E-04,1.00E-02,1.08E-04
1.67E-04,1.00E-02,1.32E-04
1.69E-04,1.00E-02,1.54E-04
1.70E-04,1.00E-02,1.72E-04
1.71E-04,1.00E-02,1.87E-04
1.73E-04,1.00E-02,1.99E-04
1.74E-04,1.00E-02,2.08E-04
1.75E-04,1.00E-02,2.12E-04
1.76E-04,1.00E-02,2.13E-04
1.77E-04,1.00E-02,2.12E-04
1.78E-04,1.00E-02,2.08E-04
1.79E-04,1.00E-02,2.03E-04
1.80E-04,1.00E-02,1.95E-04
1.81E-04,1.00E-02,1.85E-04
1.82E-04,1.00E-02,1.72E-04
1.84E-04,1.00E-02,1.58E-04
1.85E-04,1.00E-02,1.44E-04
1.86E-04,1.00E-02,1.29E-04
1.87E-04,1.00E-02,1.14E-04
1.88E-04,1.00E-02,9.80E-05
1.89E-04,1.00E-02,8.14E-05
1.91E-04,1.00E-02,6.11E-05
1.92E-04,1.00E-02,4.34E-05
1.94E-04,1.00E-02,2.83E-05
1.95E-04,1.00E-02,1.58E-05
1.97E-04,1.00E-02,5.84E-06
1.98E-04,1.00E-02,-1.54E-06
2.00E-04,1.00E-02,-6.34E-06
2.01E-04,1.00E-02,-7.38E-06
2.02E-04,1.00E-02,-5.92E-06
2.03E-04,1.00E-02,-3.04E-06
2.04E-04,1.00E-02,1.26E-06
2.05E-04,1.00E-02,6.98E-06
2.07E-04,1.00E-02,1.41E-05
2.08E-04,1.00E-02,2.27E-05
2.09E-04,1.00E-02,3.27E-05
2.10E-04,1.00E-02,4.15E-05
2.10E-04,-1.#IND00e+000,-1.#IND00e+000
