time	V(vin)	V(vout)
0.000000000000000e+000	0.000000e+000	1.812096e-005
9.765625114122045e-011	6.135923e-009	1.812096e-005
1.953125022824409e-010	1.227185e-008	1.812096e-005
1.445312516890063e-008	9.081167e-007	1.812722e-005
2.871093783551882e-008	1.803961e-006	1.817568e-005
4.296875050213701e-008	2.699806e-006	1.826635e-005
5.722656316875520e-008	3.595651e-006	1.839922e-005
7.148437583537340e-008	4.491496e-006	1.857430e-005
8.574218850199158e-008	5.387340e-006	1.879158e-005
1.000000011686097e-007	6.283185e-006	1.905107e-005
2.000000023372195e-007	1.256637e-005	2.181635e-005
2.941735723632667e-007	1.848346e-005	2.572031e-005
3.684016134403926e-007	2.314734e-005	2.958973e-005
4.499059021724778e-007	2.826838e-005	3.419832e-005
5.356158926054327e-007	3.365368e-005	3.899907e-005
6.573971933512302e-007	4.130537e-005	4.534082e-005
9.009597948428250e-007	5.660867e-005	5.673563e-005
1.195181461399485e-006	7.509476e-005	6.899564e-005
1.588203422516725e-006	9.978811e-005	8.291594e-005
2.353128831257213e-006	1.478461e-004	1.030880e-004
3.619343501149296e-006	2.273905e-004	1.223304e-004
4.946083023936497e-006	3.107215e-004	1.262682e-004
6.669081546321947e-006	4.189081e-004	1.123132e-004
8.625606925767993e-006	5.416976e-004	8.186808e-005
1.049855017072293e-005	6.591651e-004	4.583418e-005
1.219447676379098e-005	7.654521e-004	1.285531e-005
1.373095405602789e-005	8.616714e-004	-1.357070e-005
1.539212692753246e-005	9.656090e-004	-3.629905e-005
1.692238582883185e-005	1.061263e-003	-5.035887e-005
1.900887736408904e-005	1.191525e-003	-5.930807e-005
2.094264291218317e-005	1.312071e-003	-5.863829e-005
2.264141749408811e-005	1.417809e-003	-5.101729e-005
2.435461879553739e-005	1.524281e-003	-3.798556e-005
2.611476066064800e-005	1.633486e-003	-2.076317e-005
2.821113558733430e-005	1.763290e-003	2.419195e-006
3.008204936755308e-005	1.878877e-003	2.374309e-005
3.197780760410253e-005	1.995733e-003	4.440075e-005
3.386954990422898e-005	2.112060e-003	6.267897e-005
3.582402884996925e-005	2.231931e-003	7.806499e-005
3.780337318261386e-005	2.352984e-003	8.933313e-005
3.980750524778548e-005	2.475182e-003	9.590819e-005
4.188208874051001e-005	2.601262e-003	9.731398e-005
4.454980860211083e-005	2.762737e-003	9.208874e-005
4.764252559856862e-005	2.948961e-003	7.890871e-005
5.047890408909676e-005	3.118774e-003	6.213078e-005
5.296550096903946e-005	3.266832e-003	4.550643e-005
5.548500551840126e-005	3.416036e-003	2.905157e-005
5.841042674515384e-005	3.588201e-003	1.273276e-005
6.143211537138569e-005	3.764759e-003	6.141717e-007
6.420409544309636e-005	3.925534e-003	-4.920293e-006
6.720084943703096e-005	4.098006e-003	-4.635533e-006
7.258737712082590e-005	4.404321e-003	1.000491e-005
7.513127913053276e-005	4.547253e-003	2.134717e-005
7.762319380204048e-005	4.686138e-003	3.361156e-005
8.012009955822767e-005	4.824148e-003	4.567462e-005
8.342532629984661e-005	5.005005e-003	5.966032e-005
8.641761861909540e-005	5.166879e-003	6.917270e-005
8.936446758396399e-005	5.324510e-003	7.445185e-005
9.259113792995379e-005	5.495013e-003	7.544323e-005
9.611494655835551e-005	5.678636e-003	7.162002e-005
1.001365621790845e-004	5.884792e-003	6.307450e-005
1.047856506031550e-004	6.118423e-003	5.134933e-005
1.092278042600997e-004	6.336781e-003	4.180882e-005
1.137478699320998e-004	6.553900e-003	3.656669e-005
1.180360608347704e-004	6.754999e-003	3.682950e-005
1.255172244617321e-004	7.094010e-003	4.832815e-005
1.294610035124932e-004	7.266461e-003	5.688090e-005
1.340266920854654e-004	7.460529e-003	6.580340e-005
1.382792563927069e-004	7.635767e-003	7.152926e-005
1.423910049265603e-004	7.800020e-003	7.363303e-005
1.516643055809378e-004	8.151192e-003	6.853903e-005
1.572901649060967e-004	8.350828e-003	6.341465e-005
1.646301505200616e-004	8.595568e-003	5.948180e-005
1.746183111681195e-004	8.899152e-003	6.303543e-005
1.798977998672670e-004	9.045535e-003	6.814762e-005
1.850416756029828e-004	9.178586e-003	7.287408e-005
1.902415774440566e-004	9.303342e-003	7.609998e-005
2.064005790691721e-004	9.627116e-003	7.377875e-005
2.136737894119650e-004	9.740652e-003	7.156885e-005
2.326527463532617e-004	9.940658e-003	7.543946e-005
2.390802819720410e-004	9.976472e-003	7.759144e-005
2.607795998991783e-004	9.977072e-003	7.625121e-005
2.855382369553096e-004	9.751734e-003	7.548274e-005
3.037825575921823e-004	9.434444e-003	7.495745e-005
3.233138075921823e-004	8.957663e-003	7.113206e-005
3.428450575921823e-004	8.346151e-003	6.859619e-005
3.623763075921823e-004	7.609105e-003	6.485520e-005
3.819075575921824e-004	6.757610e-003	5.955920e-005
4.014388075921824e-004	5.804476e-003	5.472622e-005
4.209700575921824e-004	4.764036e-003	4.882716e-005
4.405013075921824e-004	3.651941e-003	4.229364e-005
4.600325575921824e-004	2.484917e-003	3.587669e-005
4.795638075921824e-004	1.280518e-003	2.884000e-005
4.990950575921824e-004	5.685890e-005	2.168493e-005
5.186263075921824e-004	-1.167656e-003	1.465115e-005
5.381575575921824e-004	-2.374608e-003	7.476413e-006
5.576888075921825e-004	-3.545843e-003	5.391187e-007
5.772200575921825e-004	-4.663746e-003	-6.089367e-006
5.967513075921825e-004	-5.711502e-003	-1.244337e-005
6.162825575921825e-004	-6.673351e-003	-1.827922e-005
6.358138075921825e-004	-7.534828e-003	-2.356849e-005
6.553450575921825e-004	-8.282972e-003	-2.826559e-005
6.748763075921826e-004	-8.906534e-003	-3.223115e-005
6.944075575921826e-004	-9.396133e-003	-3.545033e-005
7.139388075921826e-004	-9.744406e-003	-3.787399e-005
7.334700575921826e-004	-9.946113e-003	-3.943895e-005
7.530013075921826e-004	-9.998222e-003	-4.014762e-005
7.725325575921826e-004	-9.899948e-003	-3.998094e-005
7.920638075921827e-004	-9.652770e-003	-3.893354e-005
8.115950575921827e-004	-9.260405e-003	-3.703384e-005
8.311263075921827e-004	-8.728755e-003	-3.430314e-005
8.506575575921827e-004	-8.065816e-003	-3.078171e-005
8.701888075921827e-004	-7.281560e-003	-2.652773e-005
8.897200575921827e-004	-6.387783e-003	-2.160069e-005
9.092513075921828e-004	-5.397927e-003	-1.607581e-005
9.287825575921828e-004	-4.326882e-003	-1.003786e-005
9.483138075921828e-004	-3.190756e-003	-3.575396e-006
9.678450575921828e-004	-2.006638e-003	3.213252e-006
9.873763075921827e-004	-7.923386e-004	1.022567e-005
1.006907557592183e-003	4.338784e-004	1.735736e-005
1.026438807592183e-003	1.653569e-003	2.450032e-005
1.045970057592183e-003	2.848389e-003	3.154722e-005
1.065501307592183e-003	4.000367e-003	3.839241e-005
1.085032557592183e-003	5.092175e-003	4.493255e-005
1.104563807592183e-003	6.107392e-003	5.106942e-005
1.124095057592183e-003	7.030748e-003	5.671080e-005
1.143626307592183e-003	7.848355e-003	6.177166e-005
1.163157557592183e-003	8.547916e-003	6.617601e-005
1.182688807592183e-003	9.118908e-003	6.985760e-005
1.202220057592183e-003	9.552743e-003	7.276097e-005
1.221751307592183e-003	9.842897e-003	7.484252e-005
1.241282557592183e-003	9.985004e-003	7.607094e-005
1.260813807592183e-003	9.976926e-003	7.642772e-005
1.280345057592183e-003	9.818787e-003	7.590753e-005
1.299876307592183e-003	9.512964e-003	7.451817e-005
1.319407557592183e-003	9.064057e-003	7.228053e-005
1.338938807592183e-003	8.478818e-003	6.922830e-005
1.358470057592183e-003	7.766050e-003	6.540735e-005
1.378001307592183e-003	6.936474e-003	6.087518e-005
1.397532557592183e-003	6.002566e-003	5.569995e-005
1.417063807592183e-003	4.978375e-003	4.995949e-005
1.436595057592183e-003	3.879303e-003	4.374015e-005
1.456126307592183e-003	2.721884e-003	3.713547e-005
1.475657557592183e-003	1.523525e-003	3.024480e-005
1.495188807592183e-003	3.022501e-004	2.317177e-005
1.514720057592183e-003	-9.235704e-004	1.602278e-005
1.534251307592183e-003	-2.135500e-003	8.905341e-006
1.553782557592183e-003	-3.315309e-003	1.926516e-006
1.573313807592183e-003	-4.445253e-003	-4.808729e-006
1.592845057592183e-003	-5.508336e-003	-1.119909e-005
1.612376307592183e-003	-6.488569e-003	-1.714845e-005
1.631907557592183e-003	-7.371207e-003	-2.256733e-005
1.651438807592183e-003	-8.142976e-003	-2.737421e-005
1.670970057592183e-003	-8.792267e-003	-3.149681e-005
1.690501307592183e-003	-9.309314e-003	-3.487311e-005
1.710032557592183e-003	-9.686341e-003	-3.745233e-005
1.729563807592183e-003	-9.917675e-003	-3.919567e-005
1.749095057592183e-003	-9.999839e-003	-4.007692e-005
1.768626307592183e-003	-9.931595e-003	-4.008282e-005
1.788157557592183e-003	-9.713971e-003	-3.921328e-005
1.807688807592184e-003	-9.350240e-003	-3.748138e-005
1.827220057592184e-003	-8.845873e-003	-3.491317e-005
1.846751307592184e-003	-8.208456e-003	-3.154727e-005
1.866282557592184e-003	-7.447576e-003	-2.743432e-005
1.885813807592184e-003	-6.574677e-003	-2.263618e-005
1.905345057592184e-003	-5.602889e-003	-1.722501e-005
1.924876307592184e-003	-4.546829e-003	-1.128220e-005
1.944407557592184e-003	-3.422379e-003	-4.897143e-006
1.963938807592183e-003	-2.246454e-003	1.834128e-006
1.983470057592183e-003	-1.036741e-003	8.810368e-006
2.003001307592183e-003	1.885665e-004	1.592665e-005
2.022532557592182e-003	1.411038e-003	2.307593e-005
2.042063807592182e-003	2.612285e-003	3.015069e-005
2.061595057592181e-003	3.774242e-003	3.704451e-005
2.081126307592181e-003	4.879430e-003	4.365370e-005
2.100657557592181e-003	5.911227e-003	4.987885e-005
2.120188807592180e-003	6.854114e-003	5.562634e-005
2.139720057592180e-003	7.693909e-003	6.080971e-005
2.159251307592179e-003	8.417980e-003	6.535100e-005
2.178782557592179e-003	9.015436e-003	6.918192e-005
2.198313807592178e-003	9.477293e-003	7.224482e-005
2.217845057592178e-003	9.796602e-003	7.449365e-005
2.237376307592178e-003	9.968560e-003	7.589458e-005
2.256907557592177e-003	9.990583e-003	7.642654e-005
2.276438807592177e-003	9.862338e-003	7.608154e-005
2.295970057592176e-003	9.585754e-003	7.486476e-005
2.315501307592176e-003	9.164992e-003	7.279449e-005
2.335032557592176e-003	8.606379e-003	6.990189e-005
2.354563807592175e-003	7.918318e-003	6.623044e-005
2.374095057592175e-003	7.111159e-003	6.183539e-005
2.393626307592174e-003	6.197041e-003	5.678283e-005
2.413157557592174e-003	5.189714e-003	5.114876e-005
2.432688807592173e-003	4.104329e-003	4.501793e-005
2.452220057592173e-003	2.957210e-003	3.848254e-005
2.471751307592173e-003	1.765613e-003	3.164089e-005
2.491282557592172e-003	5.474592e-004	2.459589e-005
2.510813807592172e-003	-6.789289e-004	1.745350e-005
2.530345057592171e-003	-1.895105e-003	1.032115e-005
2.549876307592171e-003	-3.082778e-003	3.306111e-006
2.569407557592171e-003	-4.224082e-003	-3.486094e-006
2.588938807592170e-003	-5.301852e-003	-9.953309e-006
2.608470057592170e-003	-6.299878e-003	-1.599826e-005
2.628001307592169e-003	-7.203147e-003	-2.153003e-005
2.647532557592169e-003	-7.998074e-003	-2.646541e-005
2.667063807592168e-003	-8.672704e-003	-3.073016e-005
2.686595057592168e-003	-9.216887e-003	-3.426016e-005
2.706126307592168e-003	-9.622440e-003	-3.700229e-005
2.725657557592167e-003	-9.883262e-003	-3.891531e-005
2.745188807592167e-003	-9.995432e-003	-3.997046e-005
2.764720057592166e-003	-9.957260e-003	-4.015186e-005
2.784251307592166e-003	-9.769321e-003	-3.945678e-005
2.803782557592166e-003	-9.434444e-003	-3.789568e-005
2.823313807592165e-003	-8.957663e-003	-3.549203e-005
2.842845057592165e-003	-8.346151e-003	-3.228200e-005
2.862376307592164e-003	-7.609105e-003	-2.831386e-005
2.881907557592164e-003	-6.757610e-003	-2.364730e-005
2.901438807592163e-003	-5.804476e-003	-1.835250e-005
2.920970057592163e-003	-4.764036e-003	-1.250911e-005
2.940501307592163e-003	-3.651941e-003	-6.205009e-006
2.960032557592162e-003	-2.484917e-003	4.649738e-007
2.979563807592162e-003	-1.280518e-003	7.400519e-006
2.999095057592161e-003	-5.685890e-005	1.449731e-005
3.018626307592161e-003	1.167656e-003	2.164860e-005
3.038157557592161e-003	2.374608e-003	2.874684e-005
3.057688807592160e-003	3.545843e-003	3.568525e-005
3.077220057592160e-003	4.663746e-003	4.235948e-005
3.096751307592159e-003	5.711502e-003	4.866914e-005
3.116282557592159e-003	6.673351e-003	5.451932e-005
3.135813807592158e-003	7.534828e-003	5.982204e-005
3.155345057592158e-003	8.282972e-003	6.449754e-005
3.174876307592158e-003	8.906534e-003	6.847549e-005
3.194407557592157e-003	9.396133e-003	7.169606e-005
3.213938807592157e-003	9.744406e-003	7.411081e-005
3.233470057592156e-003	9.946113e-003	7.568343e-005
3.253001307592156e-003	9.998222e-003	7.639024e-005
3.272532557592156e-003	9.899948e-003	7.622064e-005
3.292063807592155e-003	9.652770e-003	7.517716e-005
3.311595057592155e-003	9.260405e-003	7.327551e-005
3.331126307592154e-003	8.728755e-003	7.054427e-005
3.350657557592154e-003	8.065816e-003	6.702455e-005
3.370188807592153e-003	7.281560e-003	6.276926e-005
3.389720057592153e-003	6.387783e-003	5.784243e-005
3.409251307592153e-003	5.397927e-003	5.231815e-005
3.428782557592152e-003	4.326882e-003	4.627951e-005
3.448313807592152e-003	3.190756e-003	3.981734e-005
3.467845057592151e-003	2.006638e-003	3.302883e-005
3.487376307592151e-003	7.923386e-004	2.601610e-005
3.506907557592151e-003	-4.338784e-004	1.888462e-005
3.526438807592150e-003	-1.653569e-003	1.174165e-005
3.545970057592150e-003	-2.848389e-003	4.694629e-006
3.565501307592149e-003	-4.000367e-003	-2.150444e-006
3.585032557592149e-003	-5.092175e-003	-8.690617e-006
3.604563807592148e-003	-6.107392e-003	-1.482752e-005
3.624095057592148e-003	-7.030748e-003	-2.046884e-005
3.643626307592148e-003	-7.848355e-003	-2.552974e-005
3.663157557592147e-003	-8.547916e-003	-2.993410e-005
3.682688807592147e-003	-9.118908e-003	-3.361566e-005
3.702220057592146e-003	-9.552743e-003	-3.651905e-005
3.721751307592146e-003	-9.842897e-003	-3.860060e-005
3.741282557592146e-003	-9.985004e-003	-3.982901e-005
3.760813807592145e-003	-9.976926e-003	-4.018580e-005
3.780345057592145e-003	-9.818787e-003	-3.966560e-005
3.799876307592144e-003	-9.512964e-003	-3.827624e-005
3.819407557592144e-003	-9.064057e-003	-3.603861e-005
3.838938807592143e-003	-8.478818e-003	-3.298637e-005
3.858470057592143e-003	-7.766050e-003	-2.916543e-005
3.878001307592143e-003	-6.936474e-003	-2.463326e-005
3.897532557592142e-003	-6.002566e-003	-1.945802e-005
3.917063807592142e-003	-4.978375e-003	-1.371756e-005
3.936595057592141e-003	-3.879303e-003	-7.498222e-006
3.956126307592141e-003	-2.721884e-003	-8.935453e-007
3.975657557592141e-003	-1.523525e-003	5.997127e-006
3.995188807592140e-003	-3.022501e-004	1.307015e-005
4.014720057592140e-003	9.235704e-004	2.021915e-005
4.034251307592139e-003	2.135500e-003	2.733658e-005
4.053782557592139e-003	3.315309e-003	3.431541e-005
4.073313807592138e-003	4.445253e-003	4.105065e-005
4.092845057592138e-003	5.508336e-003	4.744102e-005
4.112376307592138e-003	6.488569e-003	5.339038e-005
4.131907557592137e-003	7.371207e-003	5.880925e-005
4.151438807592137e-003	8.142976e-003	6.361613e-005
4.170970057592136e-003	8.792267e-003	6.773873e-005
4.190501307592136e-003	9.309314e-003	7.111504e-005
4.210032557592136e-003	9.686341e-003	7.369425e-005
4.229563807592135e-003	9.917675e-003	7.543759e-005
4.249095057592135e-003	9.999839e-003	7.631884e-005
4.268626307592134e-003	9.931595e-003	7.632474e-005
4.288157557592134e-003	9.713971e-003	7.545520e-005
4.307688807592133e-003	9.350240e-003	7.372331e-005
4.327220057592133e-003	8.845873e-003	7.115509e-005
4.346751307592133e-003	8.208456e-003	6.778919e-005
4.366282557592132e-003	7.447576e-003	6.367624e-005
4.385813807592132e-003	6.574677e-003	5.887810e-005
4.405345057592131e-003	5.602889e-003	5.346693e-005
4.424876307592131e-003	4.546829e-003	4.752412e-005
4.444407557592131e-003	3.422379e-003	4.113907e-005
4.463938807592130e-003	2.246454e-003	3.440780e-005
4.483470057592130e-003	1.036741e-003	2.743156e-005
4.503001307592129e-003	-1.885665e-004	2.031528e-005
4.522532557592129e-003	-1.411038e-003	1.316599e-005
4.542063807592128e-003	-2.612285e-003	6.091236e-006
4.561595057592128e-003	-3.774242e-003	-8.025831e-007
4.581126307592128e-003	-4.879430e-003	-7.411774e-006
4.600657557592127e-003	-5.911227e-003	-1.363693e-005
4.620188807592127e-003	-6.854114e-003	-1.938442e-005
4.639720057592126e-003	-7.693909e-003	-2.456779e-005
4.659251307592126e-003	-8.417980e-003	-2.910908e-005
4.678782557592126e-003	-9.015436e-003	-3.293999e-005
4.698313807592125e-003	-9.477293e-003	-3.600289e-005
4.717845057592125e-003	-9.796602e-003	-3.825172e-005
4.737376307592124e-003	-9.968560e-003	-3.965266e-005
4.756907557592124e-003	-9.990583e-003	-4.018462e-005
4.776438807592123e-003	-9.862338e-003	-3.983962e-005
4.795970057592123e-003	-9.585754e-003	-3.862283e-005
4.815501307592123e-003	-9.164992e-003	-3.655256e-005
4.835032557592122e-003	-8.606379e-003	-3.365996e-005
4.854563807592122e-003	-7.918318e-003	-2.998852e-005
4.874095057592121e-003	-7.111159e-003	-2.559346e-005
4.893626307592121e-003	-6.197041e-003	-2.054091e-005
4.913157557592121e-003	-5.189714e-003	-1.490684e-005
4.932688807592120e-003	-4.104329e-003	-8.776003e-006
4.952220057592120e-003	-2.957210e-003	-2.240611e-006
4.971751307592119e-003	-1.765613e-003	4.601038e-006
4.991282557592119e-003	-5.474592e-004	1.164604e-005
5.010813807592118e-003	6.789289e-004	1.878843e-005
5.030345057592118e-003	1.895105e-003	2.592078e-005
5.049876307592118e-003	3.082778e-003	3.293582e-005
5.069407557592117e-003	4.224082e-003	3.972802e-005
5.088938807592117e-003	5.301852e-003	4.619523e-005
5.108470057592116e-003	6.299878e-003	5.224019e-005
5.128001307592116e-003	7.203147e-003	5.777195e-005
5.147532557592116e-003	7.998074e-003	6.270733e-005
5.167063807592115e-003	8.672704e-003	6.697209e-005
5.186595057592115e-003	9.216887e-003	7.050208e-005
5.206126307592114e-003	9.622440e-003	7.324421e-005
5.225657557592114e-003	9.883262e-003	7.515724e-005
5.245188807592113e-003	9.995432e-003	7.621238e-005
5.264720057592113e-003	9.957260e-003	7.639379e-005
5.284251307592113e-003	9.769321e-003	7.569871e-005
5.303782557592112e-003	9.434444e-003	7.413761e-005
5.323313807592112e-003	8.957663e-003	7.173396e-005
5.342845057592111e-003	8.346151e-003	6.852392e-005
5.362376307592111e-003	7.609105e-003	6.455578e-005
5.381907557592111e-003	6.757610e-003	5.988922e-005
5.401438807592110e-003	5.804476e-003	5.459442e-005
5.420970057592110e-003	4.764036e-003	4.875103e-005
5.440501307592109e-003	3.651941e-003	4.244693e-005
5.460032557592109e-003	2.484917e-003	3.577695e-005
5.479563807592108e-003	1.280518e-003	2.884141e-005
5.499095057592108e-003	5.685890e-005	2.174462e-005
5.518626307592108e-003	-1.167656e-003	1.459332e-005
5.538157557592107e-003	-2.374608e-003	7.495088e-006
5.557688807592107e-003	-3.545843e-003	5.566765e-007
5.577220057592106e-003	-4.663746e-003	-6.117551e-006
5.596751307592106e-003	-5.711502e-003	-1.242721e-005
5.616282557592106e-003	-6.673351e-003	-1.827739e-005
5.635813807592105e-003	-7.534828e-003	-2.358012e-005
5.655345057592105e-003	-8.282972e-003	-2.825561e-005
5.674876307592104e-003	-8.906534e-003	-3.223356e-005
5.694407557592104e-003	-9.396133e-003	-3.545413e-005
5.713938807592103e-003	-9.744406e-003	-3.786889e-005
5.733470057592103e-003	-9.946113e-003	-3.944150e-005
5.753001307592103e-003	-9.998222e-003	-4.014832e-005
5.772532557592102e-003	-9.899948e-003	-3.997872e-005
5.792063807592102e-003	-9.652770e-003	-3.893524e-005
5.811595057592101e-003	-9.260405e-003	-3.703358e-005
5.831126307592101e-003	-8.728755e-003	-3.430235e-005
5.850657557592101e-003	-8.065816e-003	-3.078262e-005
5.870188807592100e-003	-7.281560e-003	-2.652734e-005
5.889720057592100e-003	-6.387783e-003	-2.160050e-005
5.909251307592099e-003	-5.397927e-003	-1.607622e-005
5.928782557592099e-003	-4.326882e-003	-1.003758e-005
5.948313807592098e-003	-3.190756e-003	-3.575411e-006
5.967845057592098e-003	-2.006638e-003	3.213093e-006
5.987376307592098e-003	-7.923386e-004	1.022583e-005
6.006907557592097e-003	4.338784e-004	1.735731e-005
6.026438807592097e-003	1.653569e-003	2.450028e-005
6.045970057592096e-003	2.848389e-003	3.154729e-005
