time	V(vin)	V(vout)
0.000000000000000e+000	0.000000e+000	1.507137e-005
5.795999985558150e-008	7.757563e-004	1.506267e-005
1.159199997111630e-007	1.536107e-003	1.505922e-005
1.738799995667445e-007	2.281051e-003	1.506103e-005
2.318399994223260e-007	3.010590e-003	1.506810e-005
2.897999992779075e-007	3.724723e-003	1.508042e-005
3.477599991334890e-007	4.423450e-003	1.509801e-005
4.057199989890704e-007	5.106772e-003	1.512085e-005
4.927735704176419e-007	6.083383e-003	1.518230e-005
5.798271418462135e-007	6.954949e-003	1.531809e-005
6.668807132747851e-007	7.721468e-003	1.552820e-005
7.539342847033566e-007	8.382941e-003	1.581265e-005
8.409878561319282e-007	8.939368e-003	1.617143e-005
9.280414275604996e-007	9.390750e-003	1.660454e-005
1.015094998989071e-006	9.737085e-003	1.711198e-005
1.125586070417642e-006	9.948562e-003	1.792903e-005
1.236077141846213e-006	9.960388e-003	1.890667e-005
1.346568213274784e-006	9.772564e-003	2.004487e-005
1.457059284703356e-006	9.385089e-003	2.134364e-005
1.567550356131927e-006	8.797962e-003	2.280299e-005
1.678041427560498e-006	8.011185e-003	2.442290e-005
1.788532498989069e-006	7.024758e-003	2.620339e-005
1.852148570417640e-006	6.389772e-003	2.728864e-005
1.915764641846212e-006	5.722147e-003	2.840316e-005
1.979380713274784e-006	5.021882e-003	2.954697e-005
2.042996784703355e-006	4.288978e-003	3.072007e-005
2.106612856131927e-006	3.523434e-003	3.192244e-005
2.170228927560499e-006	2.725251e-003	3.315409e-005
2.233844998989070e-006	1.894429e-003	3.441503e-005
2.290764641846214e-006	1.140885e-003	3.555468e-005
2.347684284703357e-006	3.914145e-004	3.669321e-005
2.404603927560500e-006	-3.539828e-004	3.783062e-005
2.461523570417643e-006	-1.095307e-003	3.896692e-005
2.518443213274786e-006	-1.832558e-003	4.010210e-005
2.575362856131930e-006	-2.565736e-003	4.123617e-005
2.632282498989073e-006	-3.294840e-003	4.236912e-005
2.705943213274787e-006	-4.214991e-003	4.382000e-005
2.779603927560502e-006	-5.076523e-003	4.522367e-005
2.853264641846217e-006	-5.879436e-003	4.658012e-005
2.926925356131932e-006	-6.623732e-003	4.788937e-005
3.000586070417647e-006	-7.309410e-003	4.915140e-005
3.074246784703361e-006	-7.936469e-003	5.036621e-005
3.147907498989076e-006	-8.504910e-003	5.153382e-005
3.288532498989076e-006	-9.328217e-003	5.355600e-005
3.429157498989076e-006	-9.821643e-003	5.527670e-005
3.569782498989076e-006	-9.985188e-003	5.669592e-005
3.710407498989076e-006	-9.818853e-003	5.781365e-005
3.851032498989076e-006	-9.322637e-003	5.862989e-005
3.991657498989076e-006	-8.496540e-003	5.914465e-005
4.132282498989076e-006	-7.340563e-003	5.935793e-005
4.199246784703361e-006	-6.697286e-003	5.935781e-005
4.266211070417646e-006	-6.015838e-003	5.931261e-005
4.333175356131931e-006	-5.296221e-003	5.922234e-005
4.400139641846216e-006	-4.538433e-003	5.908699e-005
4.467103927560501e-006	-3.742475e-003	5.890657e-005
4.534068213274786e-006	-2.908348e-003	5.868107e-005
4.601032498989071e-006	-2.036050e-003	5.841049e-005
4.657952141846213e-006	-1.284234e-003	5.815958e-005
4.714871784703355e-006	-5.356814e-004	5.790044e-005
4.771791427560497e-006	2.096075e-004	5.763308e-005
4.828711070417640e-006	9.516329e-004	5.735749e-005
4.885630713274782e-006	1.690395e-003	5.707367e-005
4.942550356131924e-006	2.425893e-003	5.678163e-005
4.999469998989066e-006	3.158127e-003	5.648135e-005
5.073130713274780e-006	4.083645e-003	5.609377e-005
5.146791427560493e-006	4.951606e-003	5.573684e-005
5.220452141846206e-006	5.762010e-003	5.541056e-005
5.294112856131919e-006	6.514856e-003	5.511493e-005
5.367773570417633e-006	7.210145e-003	5.484995e-005
5.441434284703347e-006	7.847877e-003	5.461561e-005
5.515094998989060e-006	8.428052e-003	5.441192e-005
5.659068213274773e-006	9.291721e-003	5.418132e-005
5.803041427560485e-006	9.810326e-003	5.420052e-005
5.947014641846198e-006	9.983867e-003	5.446952e-005
6.090987856131910e-006	9.812345e-003	5.498833e-005
6.234961070417623e-006	9.295759e-003	5.575695e-005
6.378934284703336e-006	8.434109e-003	5.677536e-005
6.522907498989048e-006	7.227396e-003	5.804359e-005
6.589871784703333e-006	6.573783e-003	5.871111e-005
6.656836070417618e-006	5.883121e-003	5.940757e-005
6.723800356131902e-006	5.155409e-003	6.013299e-005
6.790764641846188e-006	4.390646e-003	6.088735e-005
6.857728927560472e-006	3.588834e-003	6.167066e-005
6.924693213274758e-006	2.749973e-003	6.248293e-005
6.991657498989042e-006	1.874061e-003	6.332414e-005
7.048577141846185e-006	1.120282e-003	6.404688e-005
7.105496784703326e-006	3.706925e-004	6.476568e-005
7.162416427560469e-006	-3.747076e-004	6.548052e-005
7.219336070417611e-006	-1.115918e-003	6.619141e-005
7.276255713274754e-006	-1.852940e-003	6.689835e-005
7.333175356131895e-006	-2.585772e-003	6.760133e-005
7.390094998989038e-006	-3.314415e-003	6.830036e-005
7.463755713274751e-006	-4.233778e-003	6.918558e-005
7.537416427560464e-006	-5.094372e-003	7.001938e-005
7.611077141846178e-006	-5.896197e-003	7.080176e-005
7.684737856131891e-006	-6.639252e-003	7.153270e-005
7.758398570417606e-006	-7.323538e-003	7.221223e-005
7.832059284703319e-006	-7.949054e-003	7.284032e-005
7.905719998989032e-006	-8.515801e-003	7.341700e-005
8.046344998989030e-006	-9.335337e-003	7.429900e-005
8.186969998989028e-006	-9.825059e-003	7.486786e-005
8.327594998989027e-006	-9.984968e-003	7.512359e-005
8.468219998989025e-006	-9.815062e-003	7.506617e-005
8.608844998989023e-006	-9.315343e-003	7.469561e-005
8.749469998989022e-006	-8.485810e-003	7.401191e-005
8.890094998989020e-006	-7.326464e-003	7.301506e-005
8.957059284703305e-006	-6.681879e-003	7.243612e-005
9.024023570417589e-006	-5.999264e-003	7.181029e-005
9.090987856131874e-006	-5.278619e-003	7.113759e-005
9.157952141846160e-006	-4.519944e-003	7.041801e-005
9.224916427560445e-006	-3.723240e-003	6.965155e-005
9.291880713274729e-006	-2.888505e-003	6.883821e-005
9.358844998989014e-006	-2.015741e-003	6.797799e-005
9.415764641846157e-006	-1.263667e-003	6.722473e-005
9.472684284703299e-006	-5.149729e-004	6.646228e-005
9.529603927560442e-006	2.303411e-004	6.569064e-005
9.586523570417582e-006	9.722753e-004	6.490981e-005
9.643443213274725e-006	1.710830e-003	6.411979e-005
9.700362856131867e-006	2.446004e-003	6.332058e-005
9.757282498989010e-006	3.177798e-003	6.251219e-005
9.830943213274723e-006	4.102558e-003	6.146577e-005
9.904603927560437e-006	4.969606e-003	6.044894e-005
9.978264641846150e-006	5.778945e-003	5.946169e-005
1.005192535613186e-005	6.530573e-003	5.850404e-005
1.012558607041758e-005	7.224491e-003	5.757598e-005
1.019924678470329e-005	7.860699e-003	5.667751e-005
1.027290749898900e-005	8.439196e-003	5.580864e-005
1.041688071327472e-005	9.299011e-003	5.427470e-005
1.056085392756043e-005	9.813833e-003	5.298970e-005
1.070482714184614e-005	9.983662e-003	5.195363e-005
1.084880035613185e-005	9.808498e-003	5.116649e-005
1.099277357041757e-005	9.288340e-003	5.062828e-005
1.113674678470328e-005	8.423190e-003	5.033901e-005
1.128071999898899e-005	7.213047e-003	5.029867e-005
1.134768428470328e-005	6.558149e-003	5.035843e-005
1.141464857041756e-005	5.866343e-003	5.044762e-005
1.148161285613185e-005	5.137628e-003	5.056622e-005
1.154857714184613e-005	4.372005e-003	5.071424e-005
1.161554142756042e-005	3.569474e-003	5.089168e-005
1.168250571327470e-005	2.730033e-003	5.109854e-005
1.174946999898899e-005	1.853685e-003	5.133482e-005
1.180638964184613e-005	1.099674e-003	5.154395e-005
1.186330928470327e-005	3.499688e-004	5.174977e-005
1.192022892756041e-005	-3.954309e-004	5.195228e-005
1.197714857041755e-005	-1.136525e-003	5.215149e-005
1.203406821327470e-005	-1.873314e-003	5.234738e-005
1.209098785613184e-005	-2.605797e-003	5.253996e-005
1.214790749898898e-005	-3.333975e-003	5.272924e-005
1.222156821327469e-005	-4.252548e-003	5.295586e-005
1.229522892756041e-005	-5.112200e-003	5.313272e-005
1.236888964184612e-005	-5.912932e-003	5.325982e-005
1.244255035613184e-005	-6.654744e-003	5.333717e-005
1.251621107041755e-005	-7.337635e-003	5.336476e-005
1.258987178470326e-005	-7.961605e-003	5.334259e-005
1.266353249898898e-005	-8.526655e-003	5.327067e-005
1.280415749898897e-005	-9.342417e-003	5.291881e-005
1.294478249898897e-005	-9.828434e-003	5.226365e-005
1.308540749898897e-005	-9.984704e-003	5.130520e-005
1.322603249898897e-005	-9.811230e-003	5.004343e-005
1.336665749898897e-005	-9.308010e-003	4.847837e-005
1.350728249898897e-005	-8.475044e-003	4.661001e-005
1.364790749898896e-005	-7.312332e-003	4.443834e-005
1.371487178470325e-005	-6.666443e-003	4.330491e-005
1.378183607041753e-005	-5.982664e-003	4.212762e-005
1.384880035613182e-005	-5.260995e-003	4.090650e-005
1.391576464184610e-005	-4.501437e-003	3.964152e-005
1.398272892756039e-005	-3.703988e-003	3.833271e-005
1.404969321327467e-005	-2.868650e-003	3.698004e-005
1.411665749898896e-005	-1.995423e-003	3.558354e-005
1.417357714184610e-005	-1.243095e-003	3.437704e-005
1.423049678470324e-005	-4.942623e-004	3.316386e-005
1.428741642756039e-005	2.510737e-004	3.194398e-005
1.434433607041753e-005	9.929135e-004	3.071741e-005
1.440125571327467e-005	1.731257e-003	2.948415e-005
1.445817535613181e-005	2.466105e-003	2.824420e-005
1.451509499898895e-005	3.197456e-003	2.699755e-005
1.458875571327467e-005	4.121452e-003	2.538782e-005
1.466241642756038e-005	4.987585e-003	2.381233e-005
1.473607714184609e-005	5.795855e-003	2.227106e-005
1.480973785613181e-005	6.546262e-003	2.076402e-005
1.488339857041752e-005	7.238806e-003	1.929122e-005
1.495705928470323e-005	7.873487e-003	1.785265e-005
1.503071999898895e-005	8.450304e-003	1.644831e-005
1.517134499898895e-005	9.292276e-003	1.393728e-005
1.531196999898894e-005	9.804057e-003	1.168326e-005
1.545259499898894e-005	9.985647e-003	9.686243e-006
1.559321999898894e-005	9.837045e-003	7.946238e-006
1.573384499898894e-005	9.358252e-003	6.463242e-006
1.587446999898894e-005	8.549268e-003	5.237255e-006
1.601509499898894e-005	7.410093e-003	4.268275e-006
1.608205928470322e-005	6.773346e-003	3.894367e-006
1.614902357041751e-005	6.097737e-003	3.556237e-006
1.621598785613179e-005	5.383264e-003	3.253887e-006
1.628295214184607e-005	4.629929e-003	2.987316e-006
1.634991642756036e-005	3.837730e-003	2.756525e-006
1.641688071327465e-005	3.006669e-003	2.561512e-006
1.648384499898893e-005	2.136745e-003	2.402280e-006
1.654076464184607e-005	1.386256e-003	2.280770e-006
1.659768428470322e-005	6.384526e-004	2.161021e-006
1.665460392756036e-005	-1.066642e-004	2.043032e-006
1.671152357041750e-005	-8.490949e-004	1.926803e-006
1.676844321327464e-005	-1.588839e-003	1.812335e-006
1.682536285613179e-005	-2.325898e-003	1.699627e-006
1.688228249898893e-005	-3.060270e-003	1.588679e-006
1.695594321327464e-005	-3.989497e-003	1.434632e-006
1.702960392756035e-005	-4.861930e-003	1.239335e-006
1.710326464184606e-005	-5.677569e-003	1.002787e-006
1.717692535613178e-005	-6.436415e-003	7.249881e-007
1.725058607041749e-005	-7.138467e-003	4.059385e-007
1.732424678470321e-005	-7.783726e-003	4.563815e-008
1.739790749898892e-005	-8.372191e-003	-3.559130e-007
1.754188071327463e-005	-9.254937e-003	-1.338654e-006
1.768585392756034e-005	-9.792290e-003	-2.611490e-006
1.782982714184606e-005	-9.984250e-003	-4.174420e-006
1.797380035613177e-005	-9.830819e-003	-6.027444e-006
1.811777357041748e-005	-9.331995e-003	-8.170562e-006
1.826174678470320e-005	-8.487778e-003	-1.060378e-005
1.840571999898891e-005	-7.298170e-003	-1.332708e-005
1.847268428470319e-005	-6.650979e-003	-1.468510e-005
1.853964857041748e-005	-5.966038e-003	-1.608064e-005
1.860661285613176e-005	-5.243348e-003	-1.751369e-005
1.867357714184605e-005	-4.482909e-003	-1.898425e-005
1.874054142756033e-005	-3.684721e-003	-2.049234e-005
1.880750571327462e-005	-2.848783e-003	-2.203793e-005
1.887446999898890e-005	-1.975096e-003	-2.362105e-005
1.893138964184604e-005	-1.222517e-003	-2.498106e-005
1.898830928470319e-005	-4.735495e-004	-2.634306e-005
1.904522892756033e-005	2.718052e-004	-2.770704e-005
1.910214857041747e-005	1.013547e-003	-2.907300e-005
1.915906821327461e-005	1.751677e-003	-3.044095e-005
1.921598785613176e-005	2.486195e-003	-3.181088e-005
1.927290749898890e-005	3.217100e-003	-3.318279e-005
1.934656821327461e-005	4.140329e-003	-3.494758e-005
1.942022892756032e-005	5.005543e-003	-3.667009e-005
1.949388964184604e-005	5.812741e-003	-3.835035e-005
1.956755035613175e-005	6.561923e-003	-3.998834e-005
1.964121107041747e-005	7.253090e-003	-4.158406e-005
1.971487178470318e-005	7.886241e-003	-4.313752e-005
1.978853249898889e-005	8.461376e-003	-4.464872e-005
1.992915749898889e-005	9.299595e-003	-4.734124e-005
2.006978249898889e-005	9.807683e-003	-4.974723e-005
2.021040749898889e-005	9.985640e-003	-5.186670e-005
2.035103249898888e-005	9.833465e-003	-5.369964e-005
2.049165749898888e-005	9.351158e-003	-5.524606e-005
2.063228249898888e-005	8.538720e-003	-5.650595e-005
2.077290749898888e-005	7.396150e-003	-5.747931e-005
2.083987178470317e-005	6.758083e-003	-5.784495e-005
2.090683607041745e-005	6.081291e-003	-5.816815e-005
2.097380035613174e-005	5.365776e-003	-5.844890e-005
2.104076464184602e-005	4.611538e-003	-5.868721e-005
2.110772892756030e-005	3.818575e-003	-5.888307e-005
2.117469321327459e-005	2.986889e-003	-5.903648e-005
2.124165749898887e-005	2.116479e-003	-5.914745e-005
2.129857714184601e-005	1.365717e-003	-5.922270e-005
2.135549678470316e-005	6.177565e-004	-5.929139e-005
2.141241642756030e-005	-1.274013e-004	-5.935352e-005
2.146933607041744e-005	-8.697567e-004	-5.940907e-005
2.152625571327458e-005	-1.609310e-003	-5.945807e-005
2.158317535613173e-005	-2.346060e-003	-5.950049e-005
2.164009499898887e-005	-3.080008e-003	-5.953635e-005
2.171375571327458e-005	-4.008495e-003	-5.958610e-005
2.178741642756030e-005	-4.880035e-003	-5.966905e-005
2.186107714184601e-005	-5.694627e-003	-5.978521e-005
2.193473785613172e-005	-6.452270e-003	-5.993457e-005
2.200839857041744e-005	-7.152966e-003	-6.011713e-005
2.208205928470315e-005	-7.796714e-003	-6.033290e-005
2.215571999898886e-005	-8.383514e-003	-6.058187e-005
2.229969321327458e-005	-9.262425e-003	-6.124311e-005
2.244366642756029e-005	-9.796006e-003	-6.216367e-005
2.258763964184600e-005	-9.984258e-003	-6.334356e-005
2.273161285613172e-005	-9.827181e-003	-6.478276e-005
2.287558607041743e-005	-9.324775e-003	-6.648128e-005
2.301955928470314e-005	-8.477040e-003	-6.843911e-005
2.316353249898885e-005	-7.283976e-003	-7.065627e-005
2.322045214184599e-005	-6.739880e-003	-7.159593e-005
2.327737178470314e-005	-6.166291e-003	-7.255974e-005
2.333429142756028e-005	-5.563211e-003	-7.354771e-005
2.339121107041742e-005	-4.930637e-003	-7.455984e-005
2.344813071327456e-005	-4.268571e-003	-7.559612e-005
2.350505035613171e-005	-3.577013e-003	-7.665656e-005
2.356196999898885e-005	-2.855962e-003	-7.774116e-005
2.358540749898885e-005	-2.557918e-003	-7.818898e-005
2.363897892756027e-005	-1.859113e-003	-7.922733e-005
2.369255035613170e-005	-1.159763e-003	-8.026651e-005
2.374612178470313e-005	-4.598656e-004	-8.130653e-005
2.379969321327456e-005	2.405777e-004	-8.234737e-005
2.385326464184598e-005	9.415673e-004	-8.338904e-005
2.390683607041742e-005	1.643103e-003	-8.443155e-005
2.396040749898884e-005	2.345185e-003	-8.547488e-005
2.398384499898884e-005	2.644997e-003	-8.592547e-005
2.400000000000000e-005	2.850193e-003	-8.623515e-005
