time	V(vin)	V(vout)
0.000000000000000e+000	0.000000e+000	1.507137e-005
5.849437507056015e-007	7.439722e-004	1.436183e-005
1.169887501411203e-006	1.474305e-003	1.472161e-005
1.754831252116805e-006	2.190998e-003	1.615072e-005
2.339775002822406e-006	2.894051e-003	1.864915e-005
2.924718753528008e-006	3.583465e-003	2.221691e-005
3.509662504233609e-006	4.259240e-003	2.685398e-005
4.094606254939209e-006	4.921374e-003	3.256038e-005
4.709840629939210e-006	5.587433e-003	4.130370e-005
5.325075004939210e-006	6.211530e-003	5.261649e-005
5.940309379939210e-006	6.793667e-003	6.649874e-005
6.555543754939210e-006	7.333844e-003	8.295045e-005
7.170778129939210e-006	7.832060e-003	1.019716e-004
7.786012504939211e-006	8.288315e-003	1.235623e-004
8.401246879939209e-006	8.702610e-003	1.477224e-004
9.148317192439208e-006	9.130710e-003	1.819688e-004
9.895387504939206e-006	9.473091e-003	2.177299e-004
1.064245781743921e-005	9.729753e-003	2.550056e-004
1.138952812993920e-005	9.900697e-003	2.937961e-004
1.213659844243920e-005	9.985923e-003	3.341012e-004
1.288366875493920e-005	9.985430e-003	3.759211e-004
1.363073906743920e-005	9.899218e-003	4.192556e-004
1.455359062993920e-005	9.668864e-003	4.681586e-004
1.547644219243920e-005	9.308622e-003	5.127292e-004
1.639929375493919e-005	8.823330e-003	5.508921e-004
1.732214531743919e-005	8.219508e-003	5.805532e-004
1.824499687993919e-005	7.505267e-003	5.996599e-004
1.916784844243919e-005	6.690202e-003	6.062618e-004
2.009070000493919e-005	5.785264e-003	5.985722e-004
2.101355156743918e-005	4.802607e-003	5.750273e-004
2.193640312993918e-005	3.755433e-003	5.343421e-004
2.285925469243918e-005	2.657810e-003	4.755626e-004
2.378210625493918e-005	1.524483e-003	3.981117e-004
2.470495781743918e-005	3.706760e-004	3.018276e-004
2.562780937993917e-005	-7.881104e-004	1.869946e-004
2.624304375493917e-005	-1.566642e-003	9.903436e-005
2.685827812993917e-005	-2.324849e-003	4.861924e-006
2.747351250493917e-005	-3.062731e-003	-9.552274e-005
2.808874687993917e-005	-3.780288e-003	-2.021196e-004
2.870398125493917e-005	-4.477521e-003	-3.149288e-004
2.931921562993917e-005	-5.154430e-003	-4.339502e-004
2.993445000493916e-005	-5.811013e-003	-5.591838e-004
3.068152031743917e-005	-6.560987e-003	-7.191357e-004
3.142859062993917e-005	-7.240075e-003	-8.775767e-004
3.217566094243918e-005	-7.848275e-003	-1.034507e-003
3.292273125493918e-005	-8.385588e-003	-1.189926e-003
3.366980156743919e-005	-8.852014e-003	-1.343835e-003
3.441687187993920e-005	-9.247553e-003	-1.496232e-003
3.516394219243920e-005	-9.572205e-003	-1.647119e-003
3.604284844243921e-005	-9.831381e-003	-1.814735e-003
3.692175469243922e-005	-9.970818e-003	-1.957108e-003
3.780066094243922e-005	-9.990518e-003	-2.074237e-003
3.867956719243924e-005	-9.890481e-003	-2.166123e-003
3.955847344243924e-005	-9.670705e-003	-2.232766e-003
4.043737969243925e-005	-9.331191e-003	-2.274166e-003
4.131628594243926e-005	-8.871940e-003	-2.290322e-003
4.223913750493927e-005	-8.278470e-003	-2.261024e-003
4.316198906743927e-005	-7.573790e-003	-2.190799e-003
4.408484062993928e-005	-6.767365e-003	-2.078187e-003
4.500769219243929e-005	-5.870030e-003	-1.922424e-003
4.593054375493930e-005	-4.893837e-003	-1.723496e-003
4.685339531743931e-005	-3.851903e-003	-1.482173e-003
4.777624687993931e-005	-2.758223e-003	-1.200033e-003
4.869909844243932e-005	-1.627489e-003	-8.794706e-004
4.962195000493933e-005	-4.748930e-004	-5.236896e-004
5.054480156743934e-005	6.840831e-004	-1.366831e-004
5.146765312993935e-005	1.833869e-003	2.768034e-004
5.203894219243935e-005	2.542739e-003	5.477239e-004
5.261023125493936e-005	3.229988e-003	8.213265e-004
5.318152031743936e-005	3.895616e-003	1.097611e-003
5.375280937993937e-005	4.539623e-003	1.376578e-003
5.432409844243937e-005	5.162009e-003	1.658228e-003
5.489538750493938e-005	5.762774e-003	1.942559e-003
5.546667656743938e-005	6.341918e-003	2.229572e-003
5.621374687993939e-005	7.050335e-003	2.604316e-003
5.696081719243939e-005	7.684626e-003	2.958904e-003
5.770788750493940e-005	8.244790e-003	3.293337e-003
5.845495781743941e-005	8.730829e-003	3.607615e-003
5.920202812993942e-005	9.142741e-003	3.901737e-003
5.994909844243943e-005	9.480527e-003	4.175703e-003
6.069616875493943e-005	9.744188e-003	4.429514e-003
6.148718437993942e-005	9.917257e-003	4.658185e-003
6.227820000493941e-005	9.993369e-003	4.836849e-003
6.306921562993940e-005	9.972525e-003	4.965507e-003
6.386023125493939e-005	9.854725e-003	5.044158e-003
6.465124687993939e-005	9.639968e-003	5.072803e-003
6.544226250493938e-005	9.328255e-003	5.051442e-003
6.623327812993937e-005	8.919585e-003	4.980075e-003
6.715612969243936e-005	8.336533e-003	4.816947e-003
6.807898125493934e-005	7.641489e-003	4.575237e-003
6.900183281743933e-005	6.843792e-003	4.255388e-003
6.992468437993932e-005	5.954157e-003	3.859098e-003
7.084753594243931e-005	4.984536e-003	3.389337e-003
7.177038750493930e-005	3.947953e-003	2.850344e-003
7.269323906743928e-005	2.858335e-003	2.247600e-003
7.361609062993927e-005	1.730319e-003	1.587780e-003
7.453894219243926e-005	5.790583e-004	8.786906e-004
7.497839531743925e-005	2.297514e-005	5.233944e-004
7.541784844243924e-005	-5.290077e-004	1.627619e-004
7.585730156743924e-005	-1.076890e-003	-2.032069e-004
7.629675469243924e-005	-1.620673e-003	-5.745120e-004
7.673620781743923e-005	-2.160355e-003	-9.511534e-004
7.717566094243923e-005	-2.695937e-003	-1.333131e-003
7.761511406743922e-005	-3.227419e-003	-1.720445e-003
7.818640312993921e-005	-3.905872e-003	-2.228876e-003
7.875769219243921e-005	-4.556255e-003	-2.729164e-003
7.932898125493920e-005	-5.178568e-003	-3.221307e-003
7.990027031743919e-005	-5.772811e-003	-3.705306e-003
8.047155937993919e-005	-6.338983e-003	-4.181161e-003
8.104284844243918e-005	-6.877085e-003	-4.648872e-003
8.161413750493917e-005	-7.387117e-003	-5.108438e-003
8.240515312993916e-005	-8.029838e-003	-5.720223e-003
8.319616875493915e-005	-8.582284e-003	-6.272786e-003
8.398718437993914e-005	-9.044456e-003	-6.766128e-003
8.477820000493913e-005	-9.416353e-003	-7.200249e-003
8.556921562993911e-005	-9.697976e-003	-7.575149e-003
8.636023125493910e-005	-9.889324e-003	-7.890828e-003
8.715124687993909e-005	-9.990398e-003	-8.147286e-003
8.807409844243908e-005	-9.973988e-003	-8.329229e-003
8.899695000493907e-005	-9.823590e-003	-8.398408e-003
8.991980156743906e-005	-9.541225e-003	-8.350395e-003
9.084265312993904e-005	-9.130685e-003	-8.182384e-003
9.176550469243903e-005	-8.597486e-003	-7.893275e-003
9.268835625493902e-005	-7.948791e-003	-7.483732e-003
9.361120781743901e-005	-7.193313e-003	-6.956223e-003
9.453405937993900e-005	-6.341204e-003	-6.315026e-003
9.545691094243898e-005	-5.403907e-003	-5.566211e-003
9.637976250493897e-005	-4.394016e-003	-4.717596e-003
9.730261406743896e-005	-3.325097e-003	-3.778671e-003
9.822546562993895e-005	-2.211510e-003	-2.760495e-003
9.914831719243893e-005	-1.068214e-003	-1.675575e-003
9.954382500493892e-005	-5.698726e-004	-1.190470e-003
9.993933281743893e-005	-7.317817e-005	-6.998362e-004
1.003348406299389e-004	4.218690e-004	-2.036722e-004
1.007303484424389e-004	9.152689e-004	2.980216e-004
1.011258562549389e-004	1.407022e-003	8.052452e-004
1.015213640674389e-004	1.897127e-003	1.317999e-003
1.019168718799389e-004	2.385585e-003	1.836282e-003
1.023563250049389e-004	2.921818e-003	2.414477e-003
1.027957781299389e-004	3.445268e-003	2.987480e-003
1.032352312549389e-004	3.955935e-003	3.555290e-003
1.036746843799389e-004	4.453820e-003	4.117906e-003
1.041141375049389e-004	4.938922e-003	4.675329e-003
1.045535906299389e-004	5.411241e-003	5.227559e-003
1.049930437549389e-004	5.870778e-003	5.774596e-003
1.056522234424389e-004	6.529458e-003	6.579856e-003
1.063114031299388e-004	7.134092e-003	7.338152e-003
1.069705828174388e-004	7.684678e-003	8.049484e-003
1.076297625049388e-004	8.181218e-003	8.713852e-003
1.082889421924388e-004	8.623711e-003	9.331256e-003
1.089481218799388e-004	9.012157e-003	9.901696e-003
1.096073015674388e-004	9.346556e-003	1.042517e-002
1.103983171924388e-004	9.654736e-003	1.096246e-002
1.111893328174388e-004	9.865254e-003	1.138614e-002
1.119803484424388e-004	9.978111e-003	1.169623e-002
1.127713640674388e-004	9.993306e-003	1.189271e-002
1.135623796924387e-004	9.910840e-003	1.197560e-002
1.143533953174387e-004	9.730713e-003	1.194488e-002
1.151444109424387e-004	9.452924e-003	1.180057e-002
1.160672625049387e-004	9.011959e-003	1.146677e-002
1.169901140674387e-004	8.449930e-003	1.096760e-002
1.179129656299387e-004	7.774386e-003	1.030660e-002
1.188358171924387e-004	6.994403e-003	9.489726e-003
1.197586687549387e-004	6.120459e-003	8.525237e-003
1.206815203174387e-004	5.164295e-003	7.423671e-003
1.216043718799386e-004	4.138755e-003	6.197717e-003
1.225272234424386e-004	3.057616e-003	4.862071e-003
1.234500750049387e-004	1.935402e-003	3.433264e-003
1.243729265674387e-004	7.871885e-004	1.929457e-003
1.248123796924387e-004	2.315660e-004	1.186819e-003
1.252518328174387e-004	-3.205852e-004	4.395739e-004
1.256912859424387e-004	-8.692653e-004	-3.122763e-004
1.261307390674388e-004	-1.414474e-003	-1.068732e-003
1.265701921924388e-004	-1.956212e-003	-1.829794e-003
1.270096453174388e-004	-2.494478e-003	-2.595461e-003
1.274490984424388e-004	-3.029273e-003	-3.365734e-003
1.278446062549388e-004	-3.501740e-003	-4.054959e-003
1.282401140674388e-004	-3.962796e-003	-4.735001e-003
1.286356218799388e-004	-4.412440e-003	-5.405858e-003
1.290311296924388e-004	-4.850672e-003	-6.067532e-003
1.294266375049388e-004	-5.277493e-003	-6.720022e-003
1.298221453174389e-004	-5.692903e-003	-7.363327e-003
1.302176531299389e-004	-6.096901e-003	-7.997449e-003
1.308328875049389e-004	-6.698113e-003	-8.960310e-003
1.314481218799389e-004	-7.251876e-003	-9.865602e-003
1.320633562549389e-004	-7.758190e-003	-1.071333e-002
1.326785906299390e-004	-8.217055e-003	-1.150348e-002
1.332938250049390e-004	-8.628472e-003	-1.223607e-002
1.339090593799390e-004	-8.992440e-003	-1.291109e-002
1.345242937549390e-004	-9.308959e-003	-1.352855e-002
1.354471453174390e-004	-9.669100e-003	-1.429205e-002
1.363699968799391e-004	-9.899349e-003	-1.487287e-002
1.372928484424391e-004	-9.996612e-003	-1.525996e-002
1.382157000049391e-004	-9.959583e-003	-1.544477e-002
1.391385515674392e-004	-9.788761e-003	-1.542150e-002
1.400614031299392e-004	-9.486438e-003	-1.518712e-002
1.409842546924392e-004	-9.056677e-003	-1.474153e-002
1.419071062549392e-004	-8.505251e-003	-1.408758e-002
1.428299578174393e-004	-7.839569e-003	-1.323105e-002
1.437528093799393e-004	-7.068571e-003	-1.218066e-002
1.446756609424393e-004	-6.202616e-003	-1.094795e-002
1.455985125049394e-004	-5.253337e-003	-9.547168e-003
1.465213640674394e-004	-4.233486e-003	-7.995112e-003
1.474442156299394e-004	-3.156763e-003	-6.310927e-003
1.483670671924394e-004	-2.037633e-003	-4.515872e-003
1.487625750049395e-004	-1.545676e-003	-3.713243e-003
1.491580828174395e-004	-1.052950e-003	-2.901394e-003
1.495535906299395e-004	-5.594537e-004	-2.080325e-003
1.499490984424395e-004	-6.518815e-005	-1.250036e-003
1.503446062549395e-004	4.298470e-004	-4.105271e-004
1.507401140674395e-004	9.256516e-004	4.382018e-004
1.511356218799395e-004	1.422226e-003	1.296151e-003
1.515311296924395e-004	1.915156e-003	2.156303e-003
1.519266375049396e-004	2.400416e-003	3.010876e-003
1.523221453174396e-004	2.878007e-003	3.859869e-003
1.527176531299396e-004	3.347927e-003	4.703284e-003
1.531131609424396e-004	3.810178e-003	5.541119e-003
1.535086687549396e-004	4.264759e-003	6.373375e-003
1.539041765674396e-004	4.711669e-003	7.200051e-003
1.543875750049396e-004	5.242811e-003	8.194979e-003
1.548709734424396e-004	5.750193e-003	9.157341e-003
1.553543718799397e-004	6.233815e-003	1.008714e-002
1.558377703174397e-004	6.693677e-003	1.098437e-002
1.563211687549397e-004	7.129779e-003	1.184903e-002
1.568045671924397e-004	7.542120e-003	1.268113e-002
1.572879656299397e-004	7.930702e-003	1.348066e-002
1.580350359424397e-004	8.474190e-003	1.463522e-002
1.587821062549398e-004	8.935052e-003	1.564952e-002
1.595291765674398e-004	9.313289e-003	1.652357e-002
1.602762468799398e-004	9.608899e-003	1.725736e-002
1.610233171924398e-004	9.821884e-003	1.785089e-002
1.617703875049399e-004	9.952243e-003	1.830417e-002
1.625174578174399e-004	9.999976e-003	1.861720e-002
1.634403093799399e-004	9.930269e-003	1.875651e-002
1.643631609424399e-004	9.727161e-003	1.864361e-002
1.652860125049400e-004	9.393382e-003	1.827701e-002
1.662088640674400e-004	8.933414e-003	1.765870e-002
1.671317156299400e-004	8.353437e-003	1.679414e-002
1.680545671924400e-004	7.661243e-003	1.569228e-002
1.689774187549401e-004	6.866129e-003	1.436540e-002
1.699002703174401e-004	5.978778e-003	1.282903e-002
1.708231218799401e-004	5.011109e-003	1.110177e-002
1.717459734424402e-004	3.976122e-003	9.205029e-003
1.726688250049402e-004	2.887721e-003	7.162788e-003
1.735916765674402e-004	1.760528e-003	5.001286e-003
1.740311296924402e-004	1.210313e-003	3.929875e-003
1.744705828174403e-004	6.605939e-004	2.849220e-003
1.749100359424403e-004	1.113702e-004	1.759322e-003
1.753494890674403e-004	-4.373580e-004	6.601802e-004
1.757889421924403e-004	-9.855906e-004	-4.482051e-004
1.762283953174403e-004	-1.533328e-003	-1.565834e-003
1.766678484424403e-004	-2.080570e-003	-2.692707e-003
1.770633562549403e-004	-2.566799e-003	-3.703395e-003
1.774588640674403e-004	-3.043812e-003	-4.703168e-003
1.778543718799404e-004	-3.511608e-003	-5.692023e-003
1.782498796924404e-004	-3.970186e-003	-6.669962e-003
1.786453875049404e-004	-4.419548e-003	-7.636984e-003
1.790408953174404e-004	-4.859693e-003	-8.593090e-003
1.794364031299404e-004	-5.290620e-003	-9.538279e-003
1.799198015674404e-004	-5.800138e-003	-1.066924e-002
1.804032000049404e-004	-6.284075e-003	-1.175653e-002
1.808865984424404e-004	-6.742433e-003	-1.280014e-002
1.813699968799405e-004	-7.175210e-003	-1.380008e-002
1.818533953174405e-004	-7.582408e-003	-1.475635e-002
1.823367937549405e-004	-7.964025e-003	-1.566894e-002
1.828201921924405e-004	-8.320062e-003	-1.653786e-002
1.837430437549405e-004	-8.906093e-003	-1.801778e-002
1.846658953174406e-004	-9.372482e-003	-1.926890e-002
1.855887468799406e-004	-9.712963e-003	-2.027203e-002
1.865115984424406e-004	-9.922964e-003	-2.101117e-002
1.874344500049406e-004	-9.999661e-003	-2.147377e-002
1.883573015674407e-004	-9.942026e-003	-2.165096e-002
1.892801531299407e-004	-9.750832e-003	-2.153770e-002
1.902030046924407e-004	-9.428648e-003	-2.113284e-002
1.911258562549408e-004	-8.979802e-003	-2.043924e-002
1.920487078174408e-004	-8.410324e-003	-1.946369e-002
1.929715593799408e-004	-7.727864e-003	-1.821692e-002
1.938944109424408e-004	-6.941590e-003	-1.671343e-002
1.948172625049409e-004	-6.062065e-003	-1.497137e-002
1.957401140674409e-004	-5.101103e-003	-1.301230e-002
1.966629656299409e-004	-4.071615e-003	-1.086089e-002
1.975858171924410e-004	-2.987429e-003	-8.544672e-003
1.985086687549410e-004	-1.863112e-003	-6.093642e-003
1.989481218799410e-004	-1.313784e-003	-4.878926e-003
1.993875750049410e-004	-7.646355e-004	-3.653861e-003
1.998270281299410e-004	-2.156653e-004	-2.418448e-003
2.002664812549410e-004	3.331264e-004	-1.172688e-003
2.007059343799410e-004	8.817395e-004	8.342108e-005
2.011453875049411e-004	1.430174e-003	1.349878e-003
2.015848406299411e-004	1.978430e-003	2.626682e-003
2.019364031299411e-004	2.411446e-003	3.643411e-003
2.022879656299411e-004	2.837716e-003	4.651224e-003
2.026395281299411e-004	3.257239e-003	5.650122e-003
2.029910906299411e-004	3.670016e-003	6.640105e-003
2.033426531299411e-004	4.076046e-003	7.621172e-003
2.036942156299412e-004	4.475330e-003	8.593325e-003
2.040457781299412e-004	4.867868e-003	9.556562e-003
2.044412859424412e-004	5.298246e-003	1.062217e-002
2.048367937549412e-004	5.713092e-003	1.165871e-002
2.052323015674412e-004	6.112405e-003	1.266621e-002
2.056278093799412e-004	6.496185e-003	1.364465e-002
2.060233171924412e-004	6.864432e-003	1.459404e-002
2.064188250049412e-004	7.217146e-003	1.551437e-002
2.068143328174412e-004	7.554328e-003	1.640565e-002
2.077371843799413e-004	8.261743e-003	1.832089e-002
2.086600359424413e-004	8.858172e-003	2.000444e-002
2.095828875049413e-004	9.335604e-003	2.143181e-002
2.105057390674414e-004	9.687623e-003	2.258181e-002
2.114285906299414e-004	9.909501e-003	2.343686e-002
2.123514421924414e-004	9.998257e-003	2.398328e-002
2.132742937549414e-004	9.952701e-003	2.421146e-002
2.141971453174415e-004	9.773442e-003	2.411606e-002
2.151199968799415e-004	9.462888e-003	2.369609e-002
2.160428484424415e-004	9.025213e-003	2.295497e-002
2.169657000049416e-004	8.466296e-003	2.190048e-002
2.178885515674416e-004	7.793645e-003	2.054473e-002
2.188114031299416e-004	7.016296e-003	1.890398e-002
2.197342546924416e-004	6.144693e-003	1.699848e-002
2.206571062549417e-004	5.190543e-003	1.485220e-002
2.215799578174417e-004	4.166665e-003	1.249251e-002
2.225028093799417e-004	3.086812e-003	9.949880e-003
2.234256609424418e-004	1.965492e-003	7.257435e-003
2.238211687549418e-004	1.472891e-003	6.058850e-003
2.242166765674418e-004	9.797018e-004	4.849596e-003
2.246121843799418e-004	4.859241e-004	3.629673e-003
2.250076921924418e-004	-8.441893e-006	2.399082e-003
2.254032000049418e-004	-5.033961e-004	1.157822e-003
2.257987078174418e-004	-9.989385e-004	-9.410684e-005
2.261942156299418e-004	-1.495069e-003	-1.356704e-003
2.265897234424419e-004	-1.987369e-003	-2.619368e-003
2.269852312549419e-004	-2.471827e-003	-3.871146e-003
2.273807390674419e-004	-2.948443e-003	-5.112037e-003
2.277762468799419e-004	-3.417217e-003	-6.342042e-003
2.281717546924419e-004	-3.878149e-003	-7.561161e-003
2.285672625049419e-004	-4.331239e-003	-8.769393e-003
2.289627703174419e-004	-4.776487e-003	-9.966739e-003
2.293143328174419e-004	-5.161568e-003	-1.101119e-002
2.296658953174420e-004	-5.534823e-003	-1.203158e-002
2.300174578174420e-004	-5.896254e-003	-1.302791e-002
2.303690203174420e-004	-6.245859e-003	-1.400019e-002
2.307205828174420e-004	-6.583639e-003	-1.494841e-002
2.310721453174420e-004	-6.909594e-003	-1.587257e-002
2.314237078174420e-004	-7.223723e-003	-1.677267e-002
2.323465593799420e-004	-7.975337e-003	-1.897229e-002
2.332694109424421e-004	-8.619811e-003	-2.092988e-002
2.341922625049421e-004	-9.148490e-003	-2.261767e-002
2.351151140674421e-004	-9.554270e-003	-2.401140e-002
2.360379656299421e-004	-9.831700e-003	-2.509063e-002
2.369608171924422e-004	-9.977055e-003	-2.583908e-002
2.378836687549422e-004	-9.988380e-003	-2.624484e-002
2.388065203174422e-004	-9.865523e-003	-2.630059e-002
2.397293718799423e-004	-9.610137e-003	-2.600369e-002
2.406522234424423e-004	-9.225650e-003	-2.535624e-002
2.415750750049423e-004	-8.717228e-003	-2.436512e-002
2.424979265674423e-004	-8.091701e-003	-2.304187e-002
2.434207781299424e-004	-7.357473e-003	-2.140258e-002
2.443436296924424e-004	-6.524406e-003	-1.946770e-002
2.452664812549424e-004	-5.603692e-003	-1.726177e-002
2.461893328174425e-004	-4.607700e-003	-1.481311e-002
2.471121843799425e-004	-3.549809e-003	-1.215347e-002
2.480350359424425e-004	-2.444231e-003	-9.317594e-003
2.489578875049425e-004	-1.305817e-003	-6.342786e-003
2.493973406299425e-004	-7.524037e-004	-4.877447e-003
2.498367937549426e-004	-2.008827e-004	-3.405135e-003
2.502762468799426e-004	3.487456e-004	-1.925849e-003
2.507157000049426e-004	8.964812e-004	-4.395905e-004
2.511551531299426e-004	1.442324e-003	1.053642e-003
2.515946062549426e-004	1.986274e-003	2.553847e-003
2.520340593799426e-004	2.528332e-003	4.061026e-003
2.523856218799427e-004	2.955149e-003	5.257170e-003
2.527371843799426e-004	3.374200e-003	6.439494e-003
2.530887468799427e-004	3.785484e-003	7.607997e-003
2.534403093799427e-004	4.189002e-003	8.762680e-003
2.537918718799427e-004	4.584754e-003	9.903542e-003
2.541434343799427e-004	4.972739e-003	1.103058e-002
2.544949968799427e-004	5.352959e-003	1.214380e-002
2.554178484424427e-004	6.294358e-003	1.494250e-002
