time	V(vin)	V(vout)
0.000000000000000e+000	0.000000e+000	1.507137e-005
1.527380552675080e-006	1.827070e-004	1.471940e-005
3.054761105350161e-006	3.652059e-004	1.572869e-005
4.582141658025241e-006	5.474968e-004	1.809923e-005
6.109522210700321e-006	7.295795e-004	2.183103e-005
7.636902763375401e-006	9.114542e-004	2.692409e-005
9.164283316050483e-006	1.093121e-003	3.337841e-005
1.069166386872556e-005	1.274579e-003	4.119398e-005
1.350932534853820e-005	1.607863e-003	5.996302e-005
1.663432534853820e-005	1.975350e-003	8.286110e-005
1.975932534853820e-005	2.340081e-003	1.036334e-004
2.288432534853820e-005	2.701547e-003	1.169362e-004
2.600932534853821e-005	3.059244e-003	1.178481e-004
2.913432534853821e-005	3.412672e-003	1.031873e-004
3.225932534853821e-005	3.761339e-003	7.241726e-005
3.538432534853821e-005	4.104758e-003	2.806336e-005
4.120479094976597e-005	4.728762e-003	-7.140885e-005
4.355192376985310e-005	4.974088e-003	-1.086214e-004
4.593579697916542e-005	5.219244e-003	-1.380675e-004
4.875447382151411e-005	5.503633e-003	-1.577275e-004
5.187947382151411e-005	5.811611e-003	-1.588889e-004
5.446968420345916e-005	6.060757e-003	-1.412060e-004
5.710214686679399e-005	6.308012e-003	-1.057980e-004
5.950897082827915e-005	6.528615e-003	-6.077133e-005
6.509827579690763e-005	7.019767e-003	6.619142e-005
6.779734236175909e-005	7.245858e-003	1.254023e-004
7.035691538537303e-005	7.453300e-003	1.707896e-004
7.348191538537302e-005	7.697090e-003	2.056765e-004
7.644948322852887e-005	7.918661e-003	2.138176e-004
7.953096814610524e-005	8.138191e-003	1.934768e-004
8.265596814610524e-005	8.349543e-003	1.459398e-004
8.578096814610523e-005	8.549244e-003	7.755878e-005
9.141094224106318e-005	8.878744e-003	-6.751897e-005
9.368061290417461e-005	9.000288e-003	-1.215104e-004
9.598622797215149e-005	9.116973e-003	-1.656562e-004
9.869152433340178e-005	9.245049e-003	-1.987313e-004
1.018165243334018e-004	9.380954e-003	-2.109337e-004
1.043760127447437e-004	9.482523e-003	-1.979699e-004
1.069734621848451e-004	9.576525e-003	-1.632876e-004
1.093866414559983e-004	9.655586e-003	-1.149243e-004
1.152901478905043e-004	9.815011e-003	3.599137e-005
1.199790138550707e-004	9.906853e-003	1.488746e-004
1.225252876230346e-004	9.943705e-003	1.918508e-004
1.251802171054278e-004	9.972320e-003	2.172478e-004
1.278844748131487e-004	9.991141e-003	2.207837e-004
1.303825172903204e-004	9.999252e-003	2.024068e-004
1.334516948279783e-004	9.997010e-003	1.553455e-004
1.365766948279783e-004	9.980905e-003	8.839260e-005
1.421624651530403e-004	9.917450e-003	-5.167884e-005
1.467174522182094e-004	9.832969e-003	-1.466415e-004
1.494830808845194e-004	9.767435e-003	-1.810101e-004
1.521726882215210e-004	9.693465e-003	-1.945033e-004
1.546868394804782e-004	9.615257e-003	-1.871542e-004
1.598045603229332e-004	9.429316e-003	-1.181211e-004
1.629295603229332e-004	9.298378e-003	-5.194662e-005
1.684139372045192e-004	9.037339e-003	7.413018e-005
1.708522051560728e-004	8.908744e-003	1.227088e-004
1.730835166009558e-004	8.784429e-003	1.563122e-004
1.761753446202712e-004	8.601863e-003	1.836234e-004
1.787682001036981e-004	8.439692e-003	1.881645e-004
1.838540844503181e-004	8.098199e-003	1.449231e-004
1.900392546671755e-004	7.642703e-003	3.134204e-005
1.948368049416158e-004	7.260501e-003	-6.436797e-005
1.998432688719059e-004	6.836222e-003	-1.319296e-004
2.025845509820759e-004	6.593437e-003	-1.468531e-004
2.079769528578531e-004	6.095447e-003	-1.255316e-004
2.141295010392132e-004	5.496456e-003	-3.731330e-005
2.196348077130324e-004	4.935187e-003	5.921143e-005
2.241814938568883e-004	4.455431e-003	1.201035e-004
2.268886544400731e-004	4.163437e-003	1.390163e-004
2.326603561568311e-004	3.526734e-003	1.339783e-004
2.381716521102996e-004	2.903053e-003	7.623650e-005
2.461596210262789e-004	1.977476e-003	-3.781093e-005
2.513511437024191e-004	1.365732e-003	-8.579945e-005
2.573998727108600e-004	6.465121e-004	-9.075613e-005
2.634453064909362e-004	-7.569254e-005	-4.277202e-005
2.696953064909362e-004	-8.218752e-004	3.157440e-005
2.746277634385762e-004	-1.407726e-003	8.171107e-005
2.800636468573668e-004	-2.047624e-003	1.048832e-004
2.863136468573668e-004	-2.772512e-003	8.640334e-005
2.951535741909922e-004	-3.770437e-003	9.095397e-006
3.026541631446560e-004	-4.584609e-003	-4.362996e-005
3.089041631446559e-004	-5.235170e-003	-4.777583e-005
3.182791631446559e-004	-6.155157e-003	5.588545e-006
3.266434376614510e-004	-6.911106e-003	6.144078e-005
3.354442810046336e-004	-7.631849e-003	7.189704e-005
3.448192810046335e-004	-8.306612e-003	3.048734e-005
3.534561827013675e-004	-8.836198e-003	-1.034176e-005
3.624610067834976e-004	-9.288066e-003	-1.366138e-005
3.718360067834976e-004	-9.644213e-003	1.970799e-005
3.811829000446799e-004	-9.878846e-003	4.978108e-005
3.852007571875371e-004	-9.941987e-003	4.749714e-005
3.892186143303942e-004	-9.982125e-003	4.374896e-005
3.932364714732513e-004	-9.999258e-003	3.853653e-005
3.972543286161084e-004	-9.993388e-003	3.185985e-005
4.012721857589655e-004	-9.964515e-003	2.371893e-005
4.052900429018227e-004	-9.912638e-003	1.411377e-005
4.093079000446798e-004	-9.837757e-003	3.044357e-006
4.146650429018226e-004	-9.700384e-003	1.096973e-005
4.200221857589654e-004	-9.525493e-003	1.762639e-005
4.253793286161083e-004	-9.313082e-003	2.301434e-005
4.307364714732511e-004	-9.063152e-003	2.713357e-005
4.360936143303939e-004	-8.775703e-003	2.998409e-005
4.414507571875367e-004	-8.450735e-003	3.156590e-005
4.468079000446795e-004	-8.088248e-003	3.187899e-005
4.517186143303938e-004	-7.725677e-003	2.325706e-005
4.566293286161081e-004	-7.340047e-003	1.687024e-005
4.615400429018223e-004	-6.931360e-003	1.271853e-005
4.664507571875366e-004	-6.499615e-003	1.080193e-005
4.713614714732509e-004	-6.044812e-003	1.112045e-005
4.762721857589651e-004	-5.566951e-003	1.367408e-005
4.811829000446793e-004	-5.066032e-003	1.846283e-005
4.874329000446793e-004	-4.398452e-003	2.163048e-005
4.936829000446793e-004	-3.716095e-003	2.325040e-005
4.999329000446792e-004	-3.018959e-003	2.332259e-005
5.061829000446792e-004	-2.307045e-003	2.184707e-005
5.124329000446791e-004	-1.580352e-003	1.882382e-005
5.186829000446791e-004	-8.388818e-004	1.425284e-005
5.249329000446791e-004	-8.263285e-005	8.134147e-006
5.311829000446790e-004	6.741158e-004	1.262937e-005
5.374329000446790e-004	1.416971e-003	1.568564e-005
5.436829000446790e-004	2.145934e-003	1.730296e-005
5.499329000446789e-004	2.861004e-003	1.748132e-005
5.561829000446789e-004	3.562181e-003	1.622074e-005
5.624329000446788e-004	4.249465e-003	1.352120e-005
5.686829000446788e-004	4.922856e-003	9.382710e-006
5.776114714732502e-004	5.842190e-003	1.056799e-005
5.865400429018215e-004	6.674299e-003	1.100807e-005
5.954686143303929e-004	7.419183e-003	1.070293e-005
6.043971857589643e-004	8.076841e-003	9.652595e-006
6.133257571875357e-004	8.647274e-003	7.857050e-006
6.222543286161070e-004	9.130482e-003	5.316297e-006
6.311829000446784e-004	9.526464e-003	2.030338e-006
6.423436143303926e-004	9.840582e-003	3.542247e-006
6.535043286161068e-004	9.982549e-003	4.998892e-006
6.646650429018210e-004	9.952366e-003	6.400272e-006
6.758257571875353e-004	9.750032e-003	7.746389e-006
6.869864714732496e-004	9.375548e-003	9.037241e-006
6.981471857589638e-004	8.828914e-003	1.027283e-005
7.093079000446780e-004	8.110129e-003	1.145315e-005
7.168971857589636e-004	7.532225e-003	9.572332e-006
7.244864714732493e-004	6.906405e-003	8.470521e-006
7.320757571875350e-004	6.232669e-003	8.147721e-006
7.396650429018207e-004	5.511017e-003	8.603932e-006
7.472543286161063e-004	4.741449e-003	9.839154e-006
7.548436143303920e-004	3.923966e-003	1.185339e-005
7.624329000446776e-004	3.058566e-003	1.464663e-005
7.686829000446776e-004	2.329047e-003	1.379049e-005
7.749329000446776e-004	1.596792e-003	1.333035e-005
7.811829000446775e-004	8.618021e-004	1.326619e-005
7.874329000446775e-004	1.240764e-004	1.359803e-005
7.936829000446774e-004	-6.163849e-004	1.432586e-005
7.999329000446774e-004	-1.359582e-003	1.544968e-005
8.061829000446774e-004	-2.105514e-003	1.696950e-005
8.137721857589631e-004	-2.998877e-003	1.753260e-005
8.213614714732487e-004	-3.851055e-003	1.812055e-005
8.289507571875344e-004	-4.662049e-003	1.873337e-005
8.365400429018201e-004	-5.431858e-003	1.937105e-005
8.441293286161057e-004	-6.160483e-003	2.003359e-005
8.517186143303914e-004	-6.847923e-003	2.072099e-005
8.593079000446770e-004	-7.494179e-003	2.143325e-005
8.731471857589627e-004	-8.506286e-003	2.229520e-005
8.869864714732483e-004	-9.256119e-003	2.291443e-005
9.008257571875340e-004	-9.743681e-003	2.329095e-005
9.146650429018196e-004	-9.968969e-003	2.342476e-005
9.285043286161052e-004	-9.931985e-003	2.331586e-005
9.423436143303908e-004	-9.632729e-003	2.296424e-005
9.561829000446765e-004	-9.071199e-003	2.236992e-005
9.646650429018194e-004	-8.581113e-003	2.222971e-005
9.731471857589625e-004	-8.019479e-003	2.195657e-005
9.816293286161054e-004	-7.386298e-003	2.155050e-005
9.901114714732486e-004	-6.681569e-003	2.101149e-005
9.985936143303916e-004	-5.905293e-003	2.033955e-005
1.007075757187535e-003	-5.057470e-003	1.953468e-005
1.015557900044678e-003	-4.138099e-003	1.859687e-005
1.021361471473249e-003	-3.488969e-003	1.824370e-005
1.027165042901821e-003	-2.831091e-003	1.781796e-005
1.032968614330392e-003	-2.164465e-003	1.731965e-005
1.038772185758964e-003	-1.489090e-003	1.674877e-005
1.044575757187535e-003	-8.049679e-004	1.610532e-005
1.050379328616107e-003	-1.120973e-004	1.538929e-005
1.056182900044679e-003	5.895214e-004	1.460070e-005
1.062879328616108e-003	1.398037e-003	1.404213e-005
1.069575757187536e-003	2.185395e-003	1.346725e-005
1.076272185758965e-003	2.951594e-003	1.287603e-005
1.082968614330394e-003	3.696635e-003	1.226850e-005
1.089665042901823e-003	4.420517e-003	1.164464e-005
1.096361471473251e-003	5.123241e-003	1.100445e-005
1.103057900044680e-003	5.804806e-003	1.034795e-005
1.113325757187537e-003	6.782982e-003	9.541727e-006
1.123593614330395e-003	7.632844e-003	8.828475e-006
1.133861471473252e-003	8.354391e-003	8.208189e-006
1.144129328616110e-003	8.947623e-003	7.680869e-006
1.154397185758967e-003	9.412541e-003	7.246515e-006
1.164665042901825e-003	9.749144e-003	6.905127e-006
1.174932900044682e-003	9.957433e-003	6.656704e-006
1.186093614330397e-003	9.973461e-003	6.642279e-006
1.197254328616111e-003	9.827259e-003	6.762120e-006
1.208415042901826e-003	9.518827e-003	7.016230e-006
1.219575757187541e-003	9.048166e-003	7.404607e-006
1.230736471473255e-003	8.415276e-003	7.927251e-006
1.241897185758970e-003	7.620156e-003	8.584163e-006
1.253057900044684e-003	6.662806e-003	9.375343e-006
1.260200757187542e-003	5.988798e-003	9.881517e-006
1.267343614330399e-003	5.284631e-003	1.042960e-005
1.274486471473256e-003	4.550307e-003	1.101958e-005
1.281629328616114e-003	3.785825e-003	1.165147e-005
1.288772185758971e-003	2.991184e-003	1.232527e-005
1.295915042901829e-003	2.166386e-003	1.304097e-005
1.303057900044686e-003	1.311430e-003	1.379858e-005
1.308861471473257e-003	6.127855e-004	1.434866e-005
1.314665042901829e-003	-8.054332e-005	1.490502e-005
1.320468614330401e-003	-7.685570e-004	1.546765e-005
1.326272185758972e-003	-1.451256e-003	1.603657e-005
1.332075757187544e-003	-2.128639e-003	1.661176e-005
1.337879328616115e-003	-2.800707e-003	1.719324e-005
1.343682900044687e-003	-3.467461e-003	1.778099e-005
1.351718614330402e-003	-4.368612e-003	1.853786e-005
1.359754328616116e-003	-5.211639e-003	1.925023e-005
1.367790042901831e-003	-5.996542e-003	1.991810e-005
1.375825757187545e-003	-6.723321e-003	2.054148e-005
1.383861471473259e-003	-7.391976e-003	2.112036e-005
1.391897185758974e-003	-8.002506e-003	2.165474e-005
1.399932900044689e-003	-8.554912e-003	2.214463e-005
1.414665042901832e-003	-9.330818e-003	2.282746e-005
1.429397185758975e-003	-9.808446e-003	2.326107e-005
1.444129328616118e-003	-9.987796e-003	2.344546e-005
1.458861471473262e-003	-9.868869e-003	2.338062e-005
1.473593614330405e-003	-9.451663e-003	2.306656e-005
1.488325757187548e-003	-8.736180e-003	2.250328e-005
1.503057900044692e-003	-7.722420e-003	2.169077e-005
1.510647185758977e-003	-7.099838e-003	2.118393e-005
1.518236471473263e-003	-6.433624e-003	2.063887e-005
1.525825757187549e-003	-5.723776e-003	2.005559e-005
1.533415042901835e-003	-4.970296e-003	1.943411e-005
1.541004328616121e-003	-4.173181e-003	1.877441e-005
1.548593614330407e-003	-3.332434e-003	1.807650e-005
1.556182900044693e-003	-2.448054e-003	1.734037e-005
1.562432900044693e-003	-1.707146e-003	1.672469e-005
1.568682900044693e-003	-9.670233e-004	1.610744e-005
1.574932900044694e-003	-2.276867e-004	1.548860e-005
1.581182900044694e-003	5.108641e-004	1.486819e-005
1.587432900044694e-003	1.248629e-003	1.424619e-005
1.593682900044694e-003	1.985608e-003	1.362262e-005
1.599932900044694e-003	2.721802e-003	1.299747e-005
1.607522185758980e-003	3.598151e-003	1.225973e-005
1.615111471473266e-003	4.428933e-003	1.155747e-005
1.622700757187552e-003	5.214148e-003	1.089069e-005
1.630290042901838e-003	5.953796e-003	1.025940e-005
1.637879328616124e-003	6.647878e-003	9.663581e-006
1.645468614330410e-003	7.296393e-003	9.103245e-006
1.653057900044696e-003	7.899341e-003	8.578389e-006
1.667790042901839e-003	8.867847e-003	7.732343e-006
1.682522185758982e-003	9.537585e-003	7.135961e-006
1.697254328616126e-003	9.908554e-003	6.789244e-006
1.711986471473269e-003	9.980756e-003	6.692191e-006
1.726718614330412e-003	9.754189e-003	6.844803e-006
1.741450757187556e-003	9.228855e-003	7.247079e-006
1.756182900044699e-003	8.404752e-003	7.899020e-006
1.764218614330413e-003	7.829578e-003	8.365098e-006
1.772254328616128e-003	7.198297e-003	8.879419e-006
1.780290042901842e-003	6.510910e-003	9.441985e-006
1.788325757187557e-003	5.767416e-003	1.005279e-005
1.796361471473271e-003	4.967815e-003	1.071185e-005
1.804397185758986e-003	4.112108e-003	1.141914e-005
1.812432900044700e-003	3.200295e-003	1.217468e-005
1.818682900044701e-003	2.473880e-003	1.278019e-005
1.824932900044701e-003	1.743904e-003	1.338964e-005
1.831182900044701e-003	1.010365e-003	1.400302e-005
1.837432900044701e-003	2.732655e-004	1.462033e-005
1.843682900044701e-003	-4.673962e-004	1.524158e-005
1.849932900044701e-003	-1.211620e-003	1.586676e-005
1.856182900044702e-003	-1.959405e-003	1.649588e-005
1.863325757187559e-003	-2.802416e-003	1.720794e-005
1.870468614330416e-003	-3.611022e-003	1.789249e-005
1.877611471473274e-003	-4.385222e-003	1.854951e-005
1.884754328616131e-003	-5.125017e-003	1.917901e-005
1.891897185758988e-003	-5.830406e-003	1.978099e-005
1.899040042901846e-003	-6.501389e-003	2.035544e-005
1.906182900044703e-003	-7.137967e-003	2.090238e-005
1.920022185758989e-003	-8.223546e-003	2.184361e-005
1.933861471473275e-003	-9.049206e-003	2.256801e-005
1.947700757187562e-003	-9.614948e-003	2.307557e-005
1.961540042901847e-003	-9.920771e-003	2.336630e-005
1.975379328616134e-003	-9.966676e-003	2.344020e-005
1.989218614330420e-003	-9.752662e-003	2.329726e-005
2.003057900044706e-003	-9.278730e-003	2.293748e-005
2.011986471473277e-003	-8.809123e-003	2.256549e-005
2.020915042901849e-003	-8.257708e-003	2.212320e-005
2.029843614330421e-003	-7.624482e-003	2.161061e-005
2.038772185758993e-003	-6.909447e-003	2.102772e-005
2.047700757187564e-003	-6.112602e-003	2.037454e-005
2.056629328616136e-003	-5.233947e-003	1.965105e-005
2.065557900044708e-003	-4.273483e-003	1.885727e-005
2.071361471473279e-003	-3.628405e-003	1.832227e-005
2.077165042901851e-003	-2.973878e-003	1.777834e-005
2.082968614330422e-003	-2.309902e-003	1.722547e-005
2.088772185758994e-003	-1.636477e-003	1.666366e-005
2.094575757187566e-003	-9.536020e-004	1.609292e-005
2.100379328616137e-003	-2.612780e-004	1.551323e-005
2.106182900044709e-003	4.404951e-004	1.492462e-005
2.112879328616138e-003	1.250158e-003	1.424380e-005
2.119575757187566e-003	2.039560e-003	1.357866e-005
2.126272185758995e-003	2.808701e-003	1.292922e-005
2.132968614330424e-003	3.557581e-003	1.229546e-005
2.139665042901852e-003	4.286200e-003	1.167739e-005
2.146361471473281e-003	4.994558e-003	1.107501e-005
2.153057900044710e-003	5.682654e-003	1.048831e-005
2.163325757187568e-003	6.672811e-003	9.640027e-006
2.173593614330425e-003	7.535769e-003	8.896762e-006
2.183861471473282e-003	8.271527e-003	8.258512e-006
2.194129328616140e-003	8.880087e-003	7.725279e-006
2.204397185758998e-003	9.361447e-003	7.297062e-006
2.214665042901855e-003	9.715608e-003	6.973861e-006
2.224932900044712e-003	9.942571e-003	6.755677e-006
2.236093614330427e-003	9.979314e-003	6.693933e-006
2.247254328616141e-003	9.852893e-003	6.770413e-006
2.258415042901856e-003	9.563309e-003	6.985117e-006
2.269575757187571e-003	9.110561e-003	7.338046e-006
2.280736471473285e-003	8.494650e-003	7.829199e-006
2.291897185759000e-003	7.715576e-003	8.458575e-006
2.303057900044714e-003	6.773338e-003	9.226176e-006
2.310200757187572e-003	6.107582e-003	9.772181e-006
2.317343614330429e-003	5.410692e-003	1.034575e-005
2.324486471473286e-003	4.682666e-003	1.094688e-005
2.331629328616144e-003	3.923506e-003	1.157557e-005
2.338772185759001e-003	3.133211e-003	1.223182e-005
2.345915042901858e-003	2.311780e-003	1.291564e-005
2.353057900044716e-003	1.459215e-003	1.362701e-005
2.358861471473287e-003	7.616394e-004	1.421043e-005
2.364665042901859e-003	6.866877e-005	1.479104e-005
2.370468614330430e-003	-6.196971e-004	1.536884e-005
2.376272185759002e-003	-1.303458e-003	1.594384e-005
2.382075757187574e-003	-1.982614e-003	1.651602e-005
2.387879328616145e-003	-2.657166e-003	1.708540e-005
2.393682900044717e-003	-3.327112e-003	1.765197e-005
2.401718614330431e-003	-4.233969e-003	1.842099e-005
2.409754328616146e-003	-5.083758e-003	1.914373e-005
2.417790042901860e-003	-5.876480e-003	1.982019e-005
2.425825757187575e-003	-6.612134e-003	2.045036e-005
2.433861471473290e-003	-7.290720e-003	2.103426e-005
2.441897185759004e-003	-7.912239e-003	2.157186e-005
2.449932900044719e-003	-8.476690e-003	2.206319e-005
2.464665042901862e-003	-9.278056e-003	2.277323e-005
2.479397185759005e-003	-9.780855e-003	2.323247e-005
2.494129328616149e-003	-9.985089e-003	2.344089e-005
2.508861471473292e-003	-9.890756e-003	2.339850e-005
2.523593614330435e-003	-9.497858e-003	2.310530e-005
2.538325757187578e-003	-8.806394e-003	2.256129e-005
2.553057900044722e-003	-7.816364e-003	2.176647e-005
2.560647185759008e-003	-7.204059e-003	2.126833e-005
2.568236471473293e-003	-6.547099e-003	2.073122e-005
2.575825757187580e-003	-5.845483e-003	2.015513e-005
2.583415042901865e-003	-5.099211e-003	1.954006e-005
2.591004328616151e-003	-4.308283e-003	1.888602e-005
2.598593614330437e-003	-3.472700e-003	1.819300e-005
2.606182900044723e-003	-2.592461e-003	1.746101e-005
2.612432900044723e-003	-1.853961e-003	1.684530e-005
2.618682900044723e-003	-1.115420e-003	1.622831e-005
2.624932900044724e-003	-3.768370e-004	1.561006e-005
2.631182900044724e-003	3.617877e-004	1.499053e-005
2.637432900044724e-003	1.100454e-003	1.436974e-005
2.643682900044724e-003	1.839162e-003	1.374767e-005
2.649932900044724e-003	2.577913e-003	1.312434e-005
2.657522185759010e-003	3.458579e-003	1.237936e-005
2.665111471473296e-003	4.294692e-003	1.167023e-005
2.672700757187582e-003	5.086252e-003	1.099695e-005
2.680290042901868e-003	5.833259e-003	1.035951e-005
2.687879328616154e-003	6.535713e-003	9.757935e-006
2.695468614330440e-003	7.193614e-003	9.192204e-006
2.703057900044726e-003	7.806961e-003	8.662323e-006
2.717790042901869e-003	8.799397e-003	7.794336e-006
2.732522185759013e-003	9.493292e-003	7.176365e-006
2.747254328616156e-003	9.888647e-003	6.808411e-006
2.761986471473299e-003	9.985463e-003	6.690475e-006
2.776718614330443e-003	9.783739e-003	6.822554e-006
2.791450757187586e-003	9.283475e-003	7.204651e-006
2.806182900044729e-003	8.484671e-003	7.836765e-006
2.814218614330443e-003	7.921429e-003	8.291288e-006
2.822254328616158e-003	7.301013e-003	8.795352e-006
