time	V(vin)	V(vout)
0.000000000000000e+000	0.000000e+000	1.507137e-005
5.849437507056015e-007	7.830505e-004	1.432795e-005
1.169887501411203e-006	1.550284e-003	1.470660e-005
1.754831252116805e-006	2.301700e-003	1.620734e-005
2.339775002822406e-006	3.037300e-003	1.883015e-005
2.924718753528008e-006	3.757082e-003	2.257505e-005
3.509662504233609e-006	4.461047e-003	2.744202e-005
4.094606254939209e-006	5.149195e-003	3.343108e-005
4.709840629939210e-006	5.837558e-003	4.262038e-005
5.325075004939210e-006	6.477756e-003	5.447128e-005
5.940309379939210e-006	7.069789e-003	6.898379e-005
6.555543754939210e-006	7.613656e-003	8.615790e-005
7.170778129939210e-006	8.109358e-003	1.059936e-004
7.786012504939211e-006	8.556895e-003	1.284909e-004
8.401246879939209e-006	8.956267e-003	1.536499e-004
9.104371879939208e-006	9.333743e-003	1.868587e-004
9.807496879939206e-006	9.626594e-003	2.214382e-004
1.051062187993921e-005	9.834820e-003	2.573884e-004
1.121374687993921e-005	9.958421e-003	2.947091e-004
1.191687187993920e-005	9.997397e-003	3.334006e-004
1.261999687993920e-005	9.951747e-003	3.734626e-004
1.332312187993920e-005	9.821473e-003	4.148954e-004
1.424597344243920e-005	9.519811e-003	4.649009e-004
1.516882500493919e-005	9.076835e-003	5.105606e-004
1.609167656743919e-005	8.499120e-003	5.496882e-004
1.701452812993919e-005	7.795243e-003	5.800737e-004
1.793737969243919e-005	6.975651e-003	5.995491e-004
1.886023125493919e-005	6.052510e-003	6.060548e-004
1.978308281743919e-005	5.039526e-003	5.977069e-004
2.070593437993918e-005	3.951733e-003	5.728619e-004
2.162878594243918e-005	2.805280e-003	5.301784e-004
2.255163750493918e-005	1.617185e-003	4.686736e-004
2.347448906743918e-005	4.050834e-004	3.877732e-004
2.439734062993918e-005	-8.130309e-004	2.873531e-004
2.532019219243917e-005	-2.019076e-003	1.677728e-004
2.593542656743917e-005	-2.819559e-003	7.621122e-005
2.655066094243917e-005	-3.589322e-003	-2.159733e-005
2.716589531743917e-005	-4.328365e-003	-1.256529e-004
2.778112969243917e-005	-5.036689e-003	-2.359554e-004
2.839636406743917e-005	-5.714293e-003	-3.525050e-004
2.901159844243917e-005	-6.361177e-003	-4.753015e-004
2.962683281743916e-005	-6.977342e-003	-6.043451e-004
3.037390312993917e-005	-7.660602e-003	-7.688171e-004
3.112097344243918e-005	-8.257284e-003	-9.309191e-004
3.186804375493918e-005	-8.767388e-003	-1.090651e-003
3.261511406743919e-005	-9.190915e-003	-1.248013e-003
3.336218437993919e-005	-9.527864e-003	-1.403004e-003
3.410925469243920e-005	-9.778235e-003	-1.555626e-003
3.485632500493920e-005	-9.942028e-003	-1.705878e-003
3.564734062993921e-005	-9.994031e-003	-1.853708e-003
3.643835625493922e-005	-9.941792e-003	-1.980066e-003
3.722937187993922e-005	-9.785311e-003	-2.084950e-003
3.802038750493923e-005	-9.524589e-003	-2.168360e-003
3.881140312993924e-005	-9.159625e-003	-2.230298e-003
3.960241875493924e-005	-8.690420e-003	-2.270761e-003
4.039343437993925e-005	-8.116973e-003	-2.289752e-003
4.131628594243926e-005	-7.346427e-003	-2.267701e-003
4.223913750493927e-005	-6.466829e-003	-2.203512e-003
4.316198906743927e-005	-5.491235e-003	-2.095511e-003
4.408484062993928e-005	-4.434129e-003	-1.942774e-003
4.500769219243929e-005	-3.311201e-003	-1.745174e-003
4.593054375493930e-005	-2.139122e-003	-1.503433e-003
4.685339531743931e-005	-9.352883e-004	-1.219137e-003
4.777624687993931e-005	2.824287e-004	-8.947597e-004
4.869909844243932e-005	1.495953e-003	-5.336476e-004
4.962195000493933e-005	2.687272e-003	-1.400028e-004
5.014929375493934e-005	3.358677e-003	1.007243e-004
5.067663750493934e-005	4.006277e-003	3.463827e-004
5.120398125493935e-005	4.630072e-003	5.969723e-004
5.173132500493935e-005	5.230060e-003	8.524932e-004
5.225866875493935e-005	5.806242e-003	1.112945e-003
5.278601250493936e-005	6.358619e-003	1.378329e-003
5.331335625493936e-005	6.887190e-003	1.648643e-003
5.401648125493937e-005	7.540000e-003	2.013972e-003
5.471960625493937e-005	8.117286e-003	2.367119e-003
5.542273125493939e-005	8.619050e-003	2.708085e-003
5.612585625493939e-005	9.045290e-003	3.036869e-003
5.682898125493940e-005	9.396008e-003	3.353473e-003
5.753210625493940e-005	9.671202e-003	3.657895e-003
5.823523125493941e-005	9.870873e-003	3.950136e-003
5.902624687993941e-005	9.979670e-003	4.248690e-003
5.981726250493940e-005	9.982912e-003	4.500772e-003
6.060827812993941e-005	9.880598e-003	4.706381e-003
6.139929375493940e-005	9.672728e-003	4.865517e-003
6.219030937993941e-005	9.359302e-003	4.978181e-003
6.298132500493941e-005	8.940320e-003	5.044373e-003
6.377234062993940e-005	8.415782e-003	5.064092e-003
6.469519219243939e-005	7.696458e-003	5.004326e-003
6.561804375493938e-005	6.862885e-003	4.864291e-003
6.654089531743936e-005	5.927438e-003	4.642757e-003
6.746374687993935e-005	4.904004e-003	4.339799e-003
6.838659844243934e-005	3.807773e-003	3.956846e-003
6.930945000493933e-005	2.655018e-003	3.496702e-003
7.023230156743932e-005	1.462852e-003	2.963547e-003
7.115515312993930e-005	2.489710e-004	2.362917e-003
7.207800469243929e-005	-9.686059e-004	1.701656e-003
7.300085625493928e-005	-2.171804e-003	9.878444e-004
7.348425469243928e-005	-2.796242e-003	5.919966e-004
7.396765312993927e-005	-3.403303e-003	1.896610e-004
7.445105156743927e-005	-3.992987e-003	-2.191624e-004
7.493445000493925e-005	-4.565296e-003	-6.344737e-004
7.541784844243924e-005	-5.120228e-003	-1.056273e-003
7.590124687993924e-005	-5.657783e-003	-1.484560e-003
7.638464531743923e-005	-6.177962e-003	-1.919335e-003
7.699987969243923e-005	-6.804114e-003	-2.477484e-003
7.761511406743922e-005	-7.376933e-003	-3.023057e-003
7.823034844243921e-005	-7.896418e-003	-3.556053e-003
7.884558281743920e-005	-8.362570e-003	-4.076472e-003
7.946081719243919e-005	-8.775388e-003	-4.584314e-003
8.007605156743919e-005	-9.134873e-003	-5.079579e-003
8.069128594243918e-005	-9.441025e-003	-5.562267e-003
8.157019219243916e-005	-9.758651e-003	-6.213667e-003
8.244909844243916e-005	-9.943907e-003	-6.779507e-003
8.332800469243915e-005	-9.996791e-003	-7.259788e-003
8.420691094243913e-005	-9.917304e-003	-7.654509e-003
8.508581719243911e-005	-9.705446e-003	-7.963670e-003
8.596472344243911e-005	-9.361217e-003	-8.187273e-003
8.684362969243910e-005	-8.884616e-003	-8.325315e-003
8.776648125493908e-005	-8.260541e-003	-8.333231e-003
8.868933281743907e-005	-7.513844e-003	-8.217747e-003
8.961218437993906e-005	-6.655610e-003	-7.976895e-003
9.053503594243905e-005	-5.698578e-003	-7.610603e-003
9.145788750493904e-005	-4.656956e-003	-7.120739e-003
9.238073906743902e-005	-3.546205e-003	-6.511136e-003
9.330359062993901e-005	-2.382813e-003	-5.787586e-003
9.422644219243900e-005	-1.184050e-003	-4.957793e-003
9.514929375493899e-005	3.228931e-005	-4.031305e-003
9.607214531743897e-005	1.248149e-003	-3.019409e-003
9.651159844243897e-005	1.826375e-003	-2.507028e-003
9.695105156743896e-005	2.393776e-003	-1.983828e-003
9.739050469243895e-005	2.950352e-003	-1.449810e-003
9.782995781743896e-005	3.496103e-003	-9.049745e-004
9.826941094243895e-005	4.031029e-003	-3.493208e-004
9.870886406743894e-005	4.555130e-003	2.171509e-004
9.914831719243893e-005	5.068406e-003	7.944407e-004
9.958777031743893e-005	5.563735e-003	1.376890e-003
1.000272234424389e-004	6.036559e-003	1.957172e-003
1.004666765674389e-004	6.486880e-003	2.535289e-003
1.009061296924389e-004	6.914696e-003	3.111238e-003
1.013455828174389e-004	7.320008e-003	3.685021e-003
1.017850359424389e-004	7.702817e-003	4.256638e-003
1.022244890674389e-004	8.063121e-003	4.826088e-003
1.028836687549389e-004	8.552882e-003	5.670879e-003
1.035428484424389e-004	8.971491e-003	6.472789e-003
1.042020281299389e-004	9.318950e-003	7.231818e-003
1.048612078174389e-004	9.595258e-003	7.947965e-003
1.055203875049389e-004	9.800415e-003	8.621232e-003
1.061795671924388e-004	9.934421e-003	9.251617e-003
1.068387468799388e-004	9.997276e-003	9.839121e-003
1.077615984424388e-004	9.951461e-003	1.053344e-002
1.086844500049388e-004	9.757925e-003	1.109111e-002
1.096073015674388e-004	9.419540e-003	1.150078e-002
1.105301531299388e-004	8.941329e-003	1.175304e-002
1.114530046924388e-004	8.330392e-003	1.184068e-002
1.123758562549388e-004	7.595795e-003	1.175879e-002
1.132987078174388e-004	6.748446e-003	1.150491e-002
1.142215593799387e-004	5.800921e-003	1.107910e-002
1.151444109424387e-004	4.767285e-003	1.048401e-002
1.160672625049387e-004	3.662883e-003	9.724867e-003
1.169901140674387e-004	2.504109e-003	8.809461e-003
1.179129656299387e-004	1.308163e-003	7.748073e-003
1.188358171924387e-004	9.279777e-005	6.553363e-003
1.197586687549387e-004	-1.123945e-003	5.240226e-003
1.206815203174387e-004	-2.324003e-003	3.825611e-003
1.211209734424387e-004	-2.888881e-003	3.115873e-003
1.215604265674387e-004	-3.439530e-003	2.395292e-003
1.219998796924387e-004	-3.975948e-003	1.663869e-003
1.224393328174387e-004	-4.498137e-003	9.216026e-004
1.228787859424387e-004	-5.006097e-003	1.684939e-004
1.233182390674387e-004	-5.499826e-003	-5.954575e-004
1.237576921924387e-004	-5.979326e-003	-1.370252e-003
1.241532000049387e-004	-6.392247e-003	-2.068939e-003
1.245487078174387e-004	-6.785202e-003	-2.763019e-003
1.249442156299387e-004	-7.158191e-003	-3.452490e-003
1.253397234424387e-004	-7.511214e-003	-4.137353e-003
1.257352312549387e-004	-7.844272e-003	-4.817608e-003
1.261307390674388e-004	-8.157363e-003	-5.493254e-003
1.265262468799388e-004	-8.450488e-003	-6.164293e-003
1.271414812549388e-004	-8.860835e-003	-7.194077e-003
1.277567156299388e-004	-9.208181e-003	-8.173844e-003
1.283719500049388e-004	-9.492525e-003	-9.103592e-003
1.289871843799388e-004	-9.713867e-003	-9.983323e-003
1.296024187549389e-004	-9.872208e-003	-1.081304e-002
1.302176531299389e-004	-9.967547e-003	-1.159273e-002
1.308328875049389e-004	-9.999885e-003	-1.232241e-002
1.317557390674389e-004	-9.919847e-003	-1.325997e-002
1.326785906299390e-004	-9.692556e-003	-1.402258e-002
1.336014421924390e-004	-9.321387e-003	-1.459622e-002
1.345242937549390e-004	-8.811848e-003	-1.496943e-002
1.354471453174390e-004	-8.171505e-003	-1.513353e-002
1.363699968799391e-004	-7.409862e-003	-1.508276e-002
1.372928484424391e-004	-6.538225e-003	-1.481445e-002
1.382157000049391e-004	-5.569534e-003	-1.432910e-002
1.391385515674392e-004	-4.518167e-003	-1.363039e-002
1.400614031299392e-004	-3.399732e-003	-1.272520e-002
1.409842546924392e-004	-2.230830e-003	-1.162354e-002
1.419071062549392e-004	-1.028813e-003	-1.033848e-002
1.428299578174393e-004	1.884758e-004	-8.885927e-003
1.437528093799393e-004	1.402967e-003	-7.284518e-003
1.446756609424393e-004	2.596632e-003	-5.555318e-003
1.450272234424393e-004	3.044467e-003	-4.864137e-003
1.453787859424394e-004	3.483427e-003	-4.162709e-003
1.457303484424394e-004	3.913511e-003	-3.451033e-003
1.460819109424394e-004	4.334719e-003	-2.729110e-003
1.464334734424394e-004	4.747052e-003	-1.996939e-003
1.467850359424394e-004	5.150510e-003	-1.254521e-003
1.471365984424394e-004	5.545092e-003	-5.018550e-004
1.476199968799394e-004	6.069449e-003	5.461879e-004
1.481033953174394e-004	6.564374e-003	1.589342e-003
1.485867937549394e-004	7.029868e-003	2.627608e-003
1.490701921924395e-004	7.465929e-003	3.660986e-003
1.495535906299395e-004	7.872560e-003	4.689475e-003
1.500369890674395e-004	8.249759e-003	5.713075e-003
1.505203875049395e-004	8.597526e-003	6.731787e-003
1.511356218799395e-004	8.987562e-003	8.005948e-003
1.517508562549395e-004	9.314113e-003	9.220915e-003
1.523660906299396e-004	9.577178e-003	1.037669e-002
1.529813250049396e-004	9.776758e-003	1.147327e-002
1.535965593799396e-004	9.912852e-003	1.251065e-002
1.542117937549396e-004	9.985461e-003	1.348884e-002
1.548270281299396e-004	9.994584e-003	1.440783e-002
1.557498796924397e-004	9.880384e-003	1.559936e-002
1.566727312549397e-004	9.619519e-003	1.658275e-002
1.575955828174397e-004	9.215859e-003	1.734122e-002
1.585184343799398e-004	8.675396e-003	1.786110e-002
1.594412859424398e-004	8.006154e-003	1.813200e-002
1.603641375049398e-004	7.218067e-003	1.814706e-002
1.612869890674398e-004	6.322833e-003	1.790304e-002
1.622098406299399e-004	5.333741e-003	1.740047e-002
1.631326921924399e-004	4.265475e-003	1.664363e-002
1.640555437549399e-004	3.133890e-003	1.564056e-002
1.649783953174400e-004	1.955786e-003	1.440296e-002
1.659012468799400e-004	7.486494e-004	1.294609e-002
1.668240984424400e-004	-4.696003e-004	1.128855e-002
1.677469500049400e-004	-1.680879e-003	9.452077e-003
1.686698015674401e-004	-2.867206e-003	7.461221e-003
1.690653093799401e-004	-3.366814e-003	6.561341e-003
1.694608171924401e-004	-3.854009e-003	5.646282e-003
1.698563250049401e-004	-4.328791e-003	4.716043e-003
1.702518328174401e-004	-4.791161e-003	3.770623e-003
1.706473406299401e-004	-5.241117e-003	2.810025e-003
1.710428484424401e-004	-5.678660e-003	1.834246e-003
1.714383562549402e-004	-6.103791e-003	8.432882e-004
1.718778093799402e-004	-6.556376e-003	-2.673977e-004
1.723172625049402e-004	-6.983527e-003	-1.373471e-003
1.727567156299402e-004	-7.385243e-003	-2.474930e-003
1.731961687549402e-004	-7.761525e-003	-3.571777e-003
1.736356218799402e-004	-8.112372e-003	-4.664011e-003
1.740750750049402e-004	-8.437784e-003	-5.751632e-003
1.745145281299402e-004	-8.737762e-003	-6.834639e-003
1.754373796924403e-004	-9.264336e-003	-9.029879e-003
1.763602312549403e-004	-9.653388e-003	-1.111702e-002
1.772830828174403e-004	-9.899143e-003	-1.306497e-002
1.782059343799404e-004	-9.997953e-003	-1.484437e-002
1.791287859424404e-004	-9.948351e-003	-1.642800e-002
1.800516375049404e-004	-9.751074e-003	-1.779125e-002
1.809744890674404e-004	-9.409050e-003	-1.891249e-002
1.818973406299405e-004	-8.927356e-003	-1.977338e-002
1.828201921924405e-004	-8.313141e-003	-2.035921e-002
1.837430437549405e-004	-7.575525e-003	-2.065909e-002
1.846658953174406e-004	-6.725456e-003	-2.066624e-002
1.855887468799406e-004	-5.775553e-003	-2.037801e-002
1.865115984424406e-004	-4.739915e-003	-1.979604e-002
1.874344500049406e-004	-3.633918e-003	-1.892621e-002
1.883573015674407e-004	-2.473979e-003	-1.777865e-002
1.892801531299407e-004	-1.277314e-003	-1.636759e-002
1.902030046924407e-004	-6.168958e-005	-1.471117e-002
1.911258562549408e-004	1.154851e-003	-1.283126e-002
1.920487078174408e-004	2.354249e-003	-1.075313e-002
1.929715593799408e-004	3.518700e-003	-8.505111e-003
1.933231218799408e-004	3.951669e-003	-7.605665e-003
1.936746843799408e-004	4.373909e-003	-6.692586e-003
1.940262468799408e-004	4.785418e-003	-5.765872e-003
1.943778093799409e-004	5.186198e-003	-4.825524e-003
1.947293718799409e-004	5.576247e-003	-3.871542e-003
1.950809343799409e-004	5.955567e-003	-2.903927e-003
1.954324968799409e-004	6.324156e-003	-1.922677e-003
1.958280046924409e-004	6.722435e-003	-8.089235e-004
1.962235125049409e-004	7.099959e-003	3.031520e-004
1.966190203174409e-004	7.456728e-003	1.413550e-003
1.970145281299409e-004	7.792740e-003	2.522270e-003
1.974100359424409e-004	8.107998e-003	3.629312e-003
1.978055437549410e-004	8.402499e-003	4.734677e-003
1.982010515674410e-004	8.676246e-003	5.838364e-003
1.991239031299410e-004	9.216522e-003	8.345045e-003
2.000467546924410e-004	9.619986e-003	1.075023e-002
2.009696062549411e-004	9.880648e-003	1.301862e-002
2.018924578174411e-004	9.994640e-003	1.511662e-002
2.028153093799411e-004	9.960270e-003	1.701291e-002
2.037381609424411e-004	9.778047e-003	1.867882e-002
2.046610125049412e-004	9.450676e-003	2.008886e-002
2.055838640674412e-004	8.983018e-003	2.122106e-002
2.065067156299412e-004	8.382013e-003	2.205730e-002
2.074295671924413e-004	7.656584e-003	2.258366e-002
2.083524187549413e-004	6.817500e-003	2.279058e-002
2.092752703174413e-004	5.877214e-003	2.267307e-002
2.101981218799413e-004	4.849686e-003	2.223081e-002
2.111209734424414e-004	3.750168e-003	2.146816e-002
2.120438250049414e-004	2.594982e-003	2.039414e-002
2.129666765674414e-004	1.401275e-003	1.902235e-002
2.138895281299415e-004	1.867676e-004	1.737074e-002
2.148123796924415e-004	-1.030512e-003	1.546146e-002
2.157352312549415e-004	-2.232495e-003	1.332047e-002
2.166580828174415e-004	-3.401338e-003	1.097727e-002
2.170535906299416e-004	-3.890914e-003	9.911830e-003
2.174490984424416e-004	-4.366735e-003	8.825135e-003
2.178446062549416e-004	-4.828801e-003	7.717179e-003
2.182401140674416e-004	-5.277113e-003	6.587964e-003
2.186356218799416e-004	-5.711669e-003	5.437490e-003
2.190311296924416e-004	-6.132471e-003	4.265755e-003
2.194266375049416e-004	-6.539518e-003	3.072761e-003
2.197782000049416e-004	-6.885339e-003	2.004262e-003
2.201297625049417e-004	-7.214641e-003	9.350933e-004
2.204813250049417e-004	-7.527424e-003	-1.347444e-004
2.208328875049417e-004	-7.823689e-003	-1.205251e-003
2.211844500049417e-004	-8.103435e-003	-2.276427e-003
2.215360125049417e-004	-8.366663e-003	-3.348271e-003
2.218875750049417e-004	-8.613372e-003	-4.420785e-003
2.228104265674417e-004	-9.167265e-003	-7.181610e-003
2.237332781299418e-004	-9.585078e-003	-9.853099e-003
2.246561296924418e-004	-9.860607e-003	-1.239636e-002
2.255789812549418e-004	-9.989764e-003	-1.477414e-002
2.265018328174419e-004	-9.970630e-003	-1.695141e-002
2.274246843799419e-004	-9.803490e-003	-1.889585e-002
2.283475359424419e-004	-9.490824e-003	-2.057836e-002
2.292703875049419e-004	-9.037275e-003	-2.197348e-002
2.301932390674420e-004	-8.449574e-003	-2.305978e-002
2.311160906299420e-004	-7.736446e-003	-2.382021e-002
2.320389421924420e-004	-6.908477e-003	-2.424233e-002
2.329617937549420e-004	-5.977956e-003	-2.431856e-002
2.338846453174421e-004	-4.958698e-003	-2.404627e-002
2.348074968799421e-004	-3.865831e-003	-2.342786e-002
2.357303484424421e-004	-2.715579e-003	-2.247077e-002
2.366532000049422e-004	-1.525017e-003	-2.118734e-002
2.375760515674422e-004	-3.118163e-004	-1.959470e-002
2.384989031299422e-004	9.060125e-004	-1.771452e-002
2.394217546924422e-004	2.110392e-003	-1.557273e-002
2.403446062549423e-004	3.283445e-003	-1.319914e-002
2.412674578174423e-004	4.407757e-003	-1.062704e-002
2.416190203174423e-004	4.821800e-003	-9.596920e-003
2.419705828174423e-004	5.223358e-003	-8.550854e-003
2.423221453174423e-004	5.612432e-003	-7.488841e-003
2.426737078174424e-004	5.989023e-003	-6.410880e-003
2.430252703174424e-004	6.353130e-003	-5.316972e-003
2.433768328174424e-004	6.704753e-003	-4.207117e-003
2.437283953174424e-004	7.043893e-003	-3.081314e-003
2.441239031299424e-004	7.407072e-003	-1.803273e-003
2.445194109424424e-004	7.747890e-003	-5.269530e-004
2.449149187549424e-004	8.066348e-003	7.476459e-004
2.453104265674424e-004	8.362446e-003	2.020524e-003
2.457059343799424e-004	8.636183e-003	3.291681e-003
2.461014421924425e-004	8.887559e-003	4.561117e-003
2.464969500049425e-004	9.116574e-003	5.828832e-003
2.474198015674425e-004	9.548671e-003	8.708796e-003
2.483426531299425e-004	9.839023e-003	1.147343e-002
2.492655046924426e-004	9.983324e-003	1.408246e-002
2.501883562549426e-004	9.979430e-003	1.649774e-002
2.511112078174426e-004	9.827398e-003	1.868378e-002
2.520340593799426e-004	9.529487e-003	2.060831e-002
2.529569109424427e-004	9.090118e-003	2.224270e-002
2.538797625049427e-004	8.515812e-003	2.356246e-002
2.548026140674427e-004	7.815097e-003	2.454755e-002
2.557254656299428e-004	6.998373e-003	2.518274e-002
2.566483171924428e-004	6.077763e-003	2.545779e-002
2.575711687549428e-004	5.066933e-003	2.536766e-002
2.584940203174428e-004	3.980889e-003	2.491258e-002
2.594168718799429e-004	2.835752e-003	2.409806e-002
2.603397234424429e-004	1.648519e-003	2.293485e-002
2.612625750049429e-004	4.368163e-004	2.143878e-002
2.621854265674430e-004	-7.813709e-004	1.963052e-002
2.631082781299430e-004	-1.987959e-003	1.753537e-002
2.640311296924430e-004	-3.165038e-003	1.518282e-002
2.649539812549430e-004	-4.295134e-003	1.260619e-002
2.653494890674430e-004	-4.763820e-003	1.143417e-002
2.657449968799431e-004	-5.216545e-003	1.023881e-002
2.661405046924431e-004	-5.653308e-003	9.020112e-003
2.665360125049431e-004	-6.074109e-003	7.778070e-003
