Freq.	V(vin)/I(R1)
1.00000000000000e+003	(6.86295240194670e+001dB,-1.79422426952143e+002°)
1.02329299228075e+003	(6.86295883159192e+001dB,-1.79408980539122e+002°)
1.04712854805090e+003	(6.86296556408315e+001dB,-1.79395221418731e+002°)
1.07151930523761e+003	(6.86297261367633e+001dB,-1.79381142342800e+002°)
1.09647819614319e+003	(6.86297999529763e+001dB,-1.79366735896883e+002°)
1.12201845430196e+003	(6.86298772457491e+001dB,-1.79351994496560e+002°)
1.14815362149688e+003	(6.86299581787060e+001dB,-1.79336910383676e+002°)
1.17489755493953e+003	(6.86300429231613e+001dB,-1.79321475622508e+002°)
1.20226443461741e+003	(6.86301316584799e+001dB,-1.79305682095841e+002°)
1.23026877081238e+003	(6.86302245724542e+001dB,-1.79289521500995e+002°)
1.25892541179417e+003	(6.86303218616989e+001dB,-1.79272985345749e+002°)
1.28824955169313e+003	(6.86304237320643e+001dB,-1.79256064944208e+002°)
1.31825673855641e+003	(6.86305303990681e+001dB,-1.79238751412587e+002°)
1.34896288259165e+003	(6.86306420883484e+001dB,-1.79221035664915e+002°)
1.38038426460288e+003	(6.86307590361364e+001dB,-1.79202908408663e+002°)
1.41253754462275e+003	(6.86308814897522e+001dB,-1.79184360140298e+002°)
1.44543977074593e+003	(6.86310097081233e+001dB,-1.79165381140753e+002°)
1.47910838816821e+003	(6.86311439623264e+001dB,-1.79145961470825e+002°)
1.51356124843621e+003	(6.86312845361550e+001dB,-1.79126090966492e+002°)
1.54881661891248e+003	(6.86314317267134e+001dB,-1.79105759234152e+002°)
1.58489319246111e+003	(6.86315858450377e+001dB,-1.79084955645787e+002°)
1.62181009735893e+003	(6.86317472167451e+001dB,-1.79063669334050e+002°)
1.65958690743756e+003	(6.86319161827147e+001dB,-1.79041889187276e+002°)
1.69824365246174e+003	(6.86320930997975e+001dB,-1.79019603844417e+002°)
1.73780082874937e+003	(6.86322783415612e+001dB,-1.78996801689910e+002°)
1.77827941003892e+003	(6.86324722990674e+001dB,-1.78973470848462e+002°)
1.81970085860998e+003	(6.86326753816861e+001dB,-1.78949599179776e+002°)
1.86208713666287e+003	(6.86328880179462e+001dB,-1.78925174273200e+002°)
1.90546071796325e+003	(6.86331106564260e+001dB,-1.78900183442316e+002°)
1.94984459975804e+003	(6.86333437666838e+001dB,-1.78874613719459e+002°)
1.99526231496888e+003	(6.86335878402312e+001dB,-1.78848451850186e+002°)
2.04173794466953e+003	(6.86338433915507e+001dB,-1.78821684287674e+002°)
2.08929613085404e+003	(6.86341109591601e+001dB,-1.78794297187077e+002°)
2.13796208950223e+003	(6.86343911067243e+001dB,-1.78766276399822e+002°)
2.18776162394955e+003	(6.86346844242187e+001dB,-1.78737607467872e+002°)
2.23872113856834e+003	(6.86349915291444e+001dB,-1.78708275617940e+002°)
2.29086765276777e+003	(6.86353130677991e+001dB,-1.78678265755671e+002°)
2.34422881531992e+003	(6.86356497166041e+001dB,-1.78647562459799e+002°)
2.39883291901949e+003	(6.86360021834928e+001dB,-1.78616149976282e+002°)
2.45470891568503e+003	(6.86363712093600e+001dB,-1.78584012212419e+002°)
2.51188643150958e+003	(6.86367575695768e+001dB,-1.78551132730970e+002°)
2.57039578276886e+003	(6.86371620755733e+001dB,-1.78517494744267e+002°)
2.63026799189538e+003	(6.86375855764918e+001dB,-1.78483081108357e+002°)
2.69153480392691e+003	(6.86380289609130e+001dB,-1.78447874317149e+002°)
2.75422870333816e+003	(6.86384931586593e+001dB,-1.78411856496612e+002°)
2.81838293126445e+003	(6.86389791426777e+001dB,-1.78375009399015e+002°)
2.88403150312660e+003	(6.86394879310054e+001dB,-1.78337314397230e+002°)
2.95120922666638e+003	(6.86400205888217e+001dB,-1.78298752479117e+002°)
3.01995172040201e+003	(6.86405782305899e+001dB,-1.78259304241995e+002°)
3.09029543251359e+003	(6.86411620222922e+001dB,-1.78218949887229e+002°)
3.16227766016838e+003	(6.86417731837619e+001dB,-1.78177669214950e+002°)
3.23593656929628e+003	(6.86424129911161e+001dB,-1.78135441618921e+002°)
3.31131121482591e+003	(6.86430827792934e+001dB,-1.78092246081576e+002°)
3.38844156139202e+003	(6.86437839446997e+001dB,-1.78048061169261e+002°)
3.46736850452531e+003	(6.86445179479676e+001dB,-1.78002865027693e+002°)
3.54813389233575e+003	(6.86452863168319e+001dB,-1.77956635377671e+002°)
3.63078054770101e+003	(6.86460906491269e+001dB,-1.77909349511067e+002°)
3.71535229097172e+003	(6.86469326159091e+001dB,-1.77860984287128e+002°)
3.80189396320561e+003	(6.86478139647097e+001dB,-1.77811516129132e+002°)
3.89045144994280e+003	(6.86487365229223e+001dB,-1.77760921021416e+002°)
3.98107170553497e+003	(6.86497022013292e+001dB,-1.77709174506834e+002°)
4.07380277804112e+003	(6.86507129977719e+001dB,-1.77656251684686e+002°)
4.16869383470335e+003	(6.86517710009697e+001dB,-1.77602127209144e+002°)
4.26579518801592e+003	(6.86528783944923e+001dB,-1.77546775288255e+002°)
4.36515832240165e+003	(6.86540374608896e+001dB,-1.77490169683543e+002°)
4.46683592150962e+003	(6.86552505859844e+001dB,-1.77432283710285e+002°)
4.57088189614874e+003	(6.86565202633335e+001dB,-1.77373090238513e+002°)
4.67735141287197e+003	(6.86578490988593e+001dB,-1.77312561694810e+002°)
4.78630092322637e+003	(6.86592398156599e+001dB,-1.77250670064956e+002°)
4.89778819368445e+003	(6.86606952589989e+001dB,-1.77187386897512e+002°)
5.01187233627271e+003	(6.86622184014822e+001dB,-1.77122683308412e+002°)
5.12861383991364e+003	(6.86638123484240e+001dB,-1.77056529986637e+002°)
5.24807460249772e+003	(6.86654803434065e+001dB,-1.76988897201072e+002°)
5.37031796370252e+003	(6.86672257740380e+001dB,-1.76919754808626e+002°)
5.49540873857624e+003	(6.86690521779120e+001dB,-1.76849072263719e+002°)
5.62341325190348e+003	(6.86709632487699e+001dB,-1.76776818629244e+002°)
5.75439937337156e+003	(6.86729628428721e+001dB,-1.76702962589099e+002°)
5.88843655355588e+003	(6.86750549855777e+001dB,-1.76627472462427e+002°)
6.02559586074357e+003	(6.86772438781352e+001dB,-1.76550316219661e+002°)
6.16595001861481e+003	(6.86795339046860e+001dB,-1.76471461500533e+002°)
6.30957344480192e+003	(6.86819296394805e+001dB,-1.76390875634158e+002°)
6.45654229034654e+003	(6.86844358543066e+001dB,-1.76308525661358e+002°)
6.60693448007595e+003	(6.86870575261296e+001dB,-1.76224378359361e+002°)
6.76082975391980e+003	(6.86897998449409e+001dB,-1.76138400269050e+002°)
6.91830970918935e+003	(6.86926682218125e+001dB,-1.76050557724917e+002°)
7.07945784384136e+003	(6.86956682971534e+001dB,-1.75960816887914e+002°)
7.24435960074989e+003	(6.86988059491607e+001dB,-1.75869143781366e+002°)
7.41310241300916e+003	(6.87020873024587e+001dB,-1.75775504330153e+002°)
7.58577575029182e+003	(6.87055187369182e+001dB,-1.75679864403361e+002°)
7.76247116628690e+003	(6.87091068966426e+001dB,-1.75582189860602e+002°)
7.94328234724280e+003	(6.87128586991106e+001dB,-1.75482446602236e+002°)
8.12830516164097e+003	(6.87167813444583e+001dB,-1.75380600623699e+002°)
8.31763771102669e+003	(6.87208823248855e+001dB,-1.75276618074201e+002°)
8.51138038202374e+003	(6.87251694341637e+001dB,-1.75170465320004e+002°)
8.70963589956079e+003	(6.87296507772258e+001dB,-1.75062109012548e+002°)
8.91250938133744e+003	(6.87343347798095e+001dB,-1.74951516161679e+002°)
9.12010839355908e+003	(6.87392301981256e+001dB,-1.74838654214231e+002°)
9.33254300796989e+003	(6.87443461285203e+001dB,-1.74723491138230e+002°)
9.54992586021434e+003	(6.87496920170921e+001dB,-1.74605995513002e+002°)
9.77237220955809e+003	(6.87552776692258e+001dB,-1.74486136625441e+002°)
9.99999999999998e+003	(6.87611132589961e+001dB,-1.74363884572724e+002°)
1.02329299228075e+004	(6.87672093383930e+001dB,-1.74239210371737e+002°)
1.04712854805090e+004	(6.87735768463129e+001dB,-1.74112086075499e+002°)
1.07151930523760e+004	(6.87802271172578e+001dB,-1.73982484896837e+002°)
1.09647819614318e+004	(6.87871718896747e+001dB,-1.73850381339582e+002°)
1.12201845430196e+004	(6.87944233138659e+001dB,-1.73715751337544e+002°)
1.14815362149688e+004	(6.88019939593925e+001dB,-1.73578572401495e+002°)
1.17489755493953e+004	(6.88098968218869e+001dB,-1.73438823774400e+002°)
1.20226443461741e+004	(6.88181453291851e+001dB,-1.73296486595089e+002°)
1.23026877081238e+004	(6.88267533466812e+001dB,-1.73151544070572e+002°)
1.25892541179416e+004	(6.88357351817988e+001dB,-1.73003981657135e+002°)
1.28824955169313e+004	(6.88451055874712e+001dB,-1.72853787250358e+002°)
1.31825673855640e+004	(6.88548797645076e+001dB,-1.72700951384132e+002°)
1.34896288259165e+004	(6.88650733627227e+001dB,-1.72545467438725e+002°)
1.38038426460288e+004	(6.88757024806949e+001dB,-1.72387331857894e+002°)
1.41253754462275e+004	(6.88867836640116e+001dB,-1.72226544374972e+002°)
1.44543977074592e+004	(6.88983339018558e+001dB,-1.72063108247829e+002°)
1.47910838816820e+004	(6.89103706217770e+001dB,-1.71897030502486e+002°)
1.51356124843620e+004	(6.89229116824874e+001dB,-1.71728322185143e+002°)
1.54881661891248e+004	(6.89359753645138e+001dB,-1.71556998622240e+002°)
1.58489319246111e+004	(6.89495803585344e+001dB,-1.71383079688123e+002°)
1.62181009735893e+004	(6.89637457512222e+001dB,-1.71206590079754e+002°)
1.65958690743756e+004	(6.89784910084137e+001dB,-1.71027559597810e+002°)
1.69824365246174e+004	(6.89938359554198e+001dB,-1.70846023433389e+002°)
1.73780082874937e+004	(6.90098007542936e+001dB,-1.70662022459423e+002°)
1.77827941003892e+004	(6.90264058778699e+001dB,-1.70475603525758e+002°)
1.81970085860998e+004	(6.90436720803935e+001dB,-1.70286819756711e+002°)
1.86208713666286e+004	(6.90616203645574e+001dB,-1.70095730849781e+002°)
1.90546071796324e+004	(6.90802719447767e+001dB,-1.69902403374014e+002°)
1.94984459975804e+004	(6.90996482065335e+001dB,-1.69706911066388e+002°)
1.99526231496887e+004	(6.91197706616383e+001dB,-1.69509335124386e+002°)
2.04173794466952e+004	(6.91406608992674e+001dB,-1.69309764492773e+002°)
2.08929613085403e+004	(6.91623405326516e+001dB,-1.69108296142441e+002°)
2.13796208950222e+004	(6.91848311413123e+001dB,-1.68905035338962e+002°)
2.18776162394954e+004	(6.92081542087646e+001dB,-1.68700095898403e+002°)
2.23872113856833e+004	(6.92323310556311e+001dB,-1.68493600427703e+002°)
2.29086765276777e+004	(6.92573827681454e+001dB,-1.68285680546853e+002°)
2.34422881531991e+004	(6.92833301220523e+001dB,-1.68076477089894e+002°)
2.39883291901948e+004	(6.93101935019558e+001dB,-1.67866140281684e+002°)
2.45470891568502e+004	(6.93379928162018e+001dB,-1.67654829887243e+002°)
2.51188643150957e+004	(6.93667474074320e+001dB,-1.67442715330399e+002°)
2.57039578276885e+004	(6.93964759589920e+001dB,-1.67229975778401e+002°)
2.63026799189537e+004	(6.94271963974282e+001dB,-1.67016800189133e+002°)
2.69153480392691e+004	(6.94589257913634e+001dB,-1.66803387317552e+002°)
2.75422870333816e+004	(6.94916802470989e+001dB,-1.66589945678005e+002°)
2.81838293126444e+004	(6.95254748013479e+001dB,-1.66376693459172e+002°)
2.88403150312660e+004	(6.95603233115671e+001dB,-1.66163858388466e+002°)
2.95120922666637e+004	(6.95962383444147e+001dB,-1.65951677542924e+002°)
3.01995172040200e+004	(6.96332310629215e+001dB,-1.65740397103792e+002°)
3.09029543251358e+004	(6.96713111130254e+001dB,-1.65530272052297e+002°)
3.16227766016837e+004	(6.97104865101738e+001dB,-1.65321565804398e+002°)
3.23593656929627e+004	(6.97507635267575e+001dB,-1.65114549782679e+002°)
3.31131121482590e+004	(6.97921465811875e+001dB,-1.64909502923947e+002°)
3.38844156139201e+004	(6.98346381294733e+001dB,-1.64706711121589e+002°)
3.46736850452530e+004	(6.98782385602037e+001dB,-1.64506466602234e+002°)
3.54813389233574e+004	(6.99229460938591e+001dB,-1.64309067236828e+002°)
3.63078054770100e+004	(6.99687566874147e+001dB,-1.64114815786840e+002°)
3.71535229097171e+004	(7.00156639452041e+001dB,-1.63924019086942e+002°)
3.80189396320560e+004	(7.00636590370216e+001dB,-1.63736987166164e+002°)
3.89045144994279e+004	(7.01127306244345e+001dB,-1.63554032310215e+002°)
3.98107170553496e+004	(7.01628647962596e+001dB,-1.63375468068359e+002°)
4.07380277804111e+004	(7.02140450141285e+001dB,-1.63201608208923e+002°)
4.16869383470334e+004	(7.02662520690257e+001dB,-1.63032765628216e+002°)
4.26579518801591e+004	(7.03194640496272e+001dB,-1.62869251218317e+002°)
4.36515832240164e+004	(7.03736563232023e+001dB,-1.62711372699824e+002°)
4.46683592150961e+004	(7.04288015297627e+001dB,-1.62559433426290e+002°)
4.57088189614873e+004	(7.04848695900487e+001dB,-1.62413731167621e+002°)
4.67735141287196e+004	(7.05418277278471e+001dB,-1.62274556880217e+002°)
4.78630092322636e+004	(7.05996405070160e+001dB,-1.62142193472088e+002°)
4.89778819368444e+004	(7.06582698834797e+001dB,-1.62016914571513e+002°)
5.01187233627270e+004	(7.07176752723200e+001dB,-1.61898983308130e+002°)
5.12861383991362e+004	(7.07778136299655e+001dB,-1.61788651115470e+002°)
5.24807460249770e+004	(7.08386395513339e+001dB,-1.61686156564104e+002°)
5.37031796370250e+004	(7.09001053816472e+001dB,-1.61591724234492e+002°)
5.49540873857622e+004	(7.09621613424950e+001dB,-1.61505563638569e+002°)
5.62341325190346e+004	(7.10247556715819e+001dB,-1.61427868198841e+002°)
5.75439937337154e+004	(7.10878347754575e+001dB,-1.61358814293446e+002°)
5.88843655355586e+004	(7.11513433943931e+001dB,-1.61298560375231e+002°)
6.02559586074355e+004	(7.12152247784473e+001dB,-1.61247246172345e+002°)
6.16595001861479e+004	(7.12794208736418e+001dB,-1.61204991977254e+002°)
6.30957344480190e+004	(7.13438725170631e+001dB,-1.61171898030357e+002°)
6.45654229034652e+004	(7.14085196396116e+001dB,-1.61148044003634e+002°)
6.60693448007593e+004	(7.14733014750356e+001dB,-1.61133488588886e+002°)
6.76082975391979e+004	(7.15381567738220e+001dB,-1.61128269194234e+002°)
6.91830970918933e+004	(7.16030240204592e+001dB,-1.61132401751575e+002°)
7.07945784384134e+004	(7.16678416525562e+001dB,-1.61145880636746e+002°)
7.24435960074987e+004	(7.17325482802758e+001dB,-1.61168678703085e+002°)
7.41310241300914e+004	(7.17970829045419e+001dB,-1.61200747428115e+002°)
7.58577575029180e+004	(7.18613851324892e+001dB,-1.61242017172017e+002°)
7.76247116628688e+004	(7.19253953886576e+001dB,-1.61292397545601e+002°)
7.94328234724277e+004	(7.19890551204771e+001dB,-1.61351777884487e+002°)
8.12830516164095e+004	(7.20523069966531e+001dB,-1.61420027825298e+002°)
8.31763771102667e+004	(7.21150950971346e+001dB,-1.61496997978791e+002°)
8.51138038202372e+004	(7.21773650934438e+001dB,-1.61582520694045e+002°)
8.70963589956076e+004	(7.22390644182405e+001dB,-1.61676410907090e+002°)
8.91250938133741e+004	(7.23001424231148e+001dB,-1.61778467066692e+002°)
9.12010839355905e+004	(7.23605505237190e+001dB,-1.61888472129493e+002°)
9.33254300796986e+004	(7.24202423314823e+001dB,-1.62006194616173e+002°)
9.54992586021431e+004	(7.24791737712859e+001dB,-1.62131389719988e+002°)
9.77237220955805e+004	(7.25373031846173e+001dB,-1.62263800458756e+002°)
9.99999999999995e+004	(7.25945914178618e+001dB,-1.62403158861182e+002°)
1.02329299228075e+005	(7.26510018955330e+001dB,-1.62549187178407e+002°)
1.04712854805089e+005	(7.27065006783813e+001dB,-1.62701599111664e+002°)
1.07151930523760e+005	(7.27610565064576e+001dB,-1.62860101047092e+002°)
1.09647819614318e+005	(7.28146408273389e+001dB,-1.63024393289009e+002°)
1.12201845430196e+005	(7.28672278098449e+001dB,-1.63194171283245e+002°)
1.14815362149688e+005	(7.29187943436937e+001dB,-1.63369126822575e+002°)
1.17489755493952e+005	(7.29693200256457e+001dB,-1.63548949226734e+002°)
1.20226443461741e+005	(7.30187871327855e+001dB,-1.63733326490081e+002°)
1.23026877081237e+005	(7.30671805836697e+001dB,-1.63921946390527e+002°)
1.25892541179416e+005	(7.31144878881453e+001dB,-1.64114497554012e+002°)
1.28824955169313e+005	(7.31606990867002e+001dB,-1.64310670469475e+002°)
1.31825673855640e+005	(7.32058066802543e+001dB,-1.64510158449918e+002°)
1.34896288259165e+005	(7.32498055513357e+001dB,-1.64712658535924e+002°)
1.38038426460288e+005	(7.32926928776065e+001dB,-1.64917872338617e+002°)
1.41253754462275e+005	(7.33344680387152e+001dB,-1.65125506819793e+002°)
1.44543977074592e+005	(7.33751325174500e+001dB,-1.65335275007609e+002°)
1.47910838816820e+005	(7.34146897961579e+001dB,-1.65546896646836e+002°)
1.51356124843620e+005	(7.34531452493710e+001dB,-1.65760098783337e+002°)
1.54881661891247e+005	(7.34905060335549e+001dB,-1.65974616282984e+002°)
1.58489319246110e+005	(7.35267809748545e+001dB,-1.66190192285753e+002°)
1.62181009735892e+005	(7.35619804556698e+001dB,-1.66406578596240e+002°)
1.65958690743755e+005	(7.35961163008445e+001dB,-1.66623536012271e+002°)
1.69824365246173e+005	(7.36292016641980e+001dB,-1.66840834593648e+002°)
1.73780082874937e+005	(7.36612509160723e+001dB,-1.67058253873439e+002°)
1.77827941003891e+005	(7.36922795325074e+001dB,-1.67275583014465e+002°)
1.81970085860997e+005	(7.37223039865986e+001dB,-1.67492620913889e+002°)
1.86208713666286e+005	(7.37513416425260e+001dB,-1.67709176259002e+002°)
1.90546071796324e+005	(7.37794106526891e+001dB,-1.67925067537397e+002°)
1.94984459975803e+005	(7.38065298583155e+001dB,-1.68140123004863e+002°)
1.99526231496887e+005	(7.38327186938589e+001dB,-1.68354180614334e+002°)
2.04173794466952e+005	(7.38579970954429e+001dB,-1.68567087909280e+002°)
2.08929613085403e+005	(7.38823854135562e+001dB,-1.68778701884865e+002°)
2.13796208950222e+005	(7.39059043301530e+001dB,-1.68988888820183e+002°)
2.18776162394954e+005	(7.39285747802683e+001dB,-1.69197524084771e+002°)
2.23872113856833e+005	(7.39504178782121e+001dB,-1.69404491922516e+002°)
2.29086765276776e+005	(7.39714548483695e+001dB,-1.69609685215952e+002°)
2.34422881531991e+005	(7.39917069605970e+001dB,-1.69813005233788e+002°)
2.39883291901948e+005	(7.40111954701732e+001dB,-1.70014361364385e+002°)
2.45470891568501e+005	(7.40299415622362e+001dB,-1.70213670837714e+002°)
2.51188643150956e+005	(7.40479663006116e+001dB,-1.70410858438195e+002°)
2.57039578276885e+005	(7.40652905809180e+001dB,-1.70605856210608e+002°)
2.63026799189536e+005	(7.40819350878161e+001dB,-1.70798603161134e+002°)
2.69153480392690e+005	(7.40979202562559e+001dB,-1.70989044955398e+002°)
2.75422870333815e+005	(7.41132662365600e+001dB,-1.71177133615211e+002°)
2.81838293126444e+005	(7.41279928631776e+001dB,-1.71362827215553e+002°)
2.88403150312659e+005	(7.41421196269336e+001dB,-1.71546089583195e+002°)
2.95120922666637e+005	(7.41556656505925e+001dB,-1.71726889998171e+002°)
3.01995172040200e+005	(7.41686496675577e+001dB,-1.71905202899192e+002°)
3.09029543251357e+005	(7.41810900035227e+001dB,-1.72081007593957e+002°)
3.16227766016836e+005	(7.41930045608936e+001dB,-1.72254287975161e+002°)
3.23593656929626e+005	(7.42044108058051e+001dB,-1.72425032242916e+002°)
3.31131121482589e+005	(7.42153257575538e+001dB,-1.72593232634148e+002°)
3.38844156139200e+005	(7.42257659802801e+001dB,-1.72758885159459e+002°)
3.46736850452529e+005	(7.42357475767322e+001dB,-1.72921989347840e+002°)
3.54813389233573e+005	(7.42452861839553e+001dB,-1.73082547999520e+002°)
3.63078054770099e+005	(7.42543969707527e+001dB,-1.73240566947170e+002°)
3.71535229097170e+005	(7.42630946367747e+001dB,-1.73396054825619e+002°)
3.80189396320558e+005	(7.42713934130983e+001dB,-1.73549022850150e+002°)
3.89045144994278e+005	(7.42793070641672e+001dB,-1.73699484603406e+002°)
3.98107170553494e+005	(7.42868488909705e+001dB,-1.73847455830892e+002°)
4.07380277804110e+005	(7.42940317353469e+001dB,-1.73992954244994e+002°)
4.16869383470332e+005	(7.43008679853061e+001dB,-1.74135999337429e+002°)
4.26579518801589e+005	(7.43073695812708e+001dB,-1.74276612199982e+002°)
4.36515832240163e+005	(7.43135480231458e+001dB,-1.74414815353383e+002°)
4.46683592150960e+005	(7.43194143781327e+001dB,-1.74550632584140e+002°)
4.57088189614872e+005	(7.43249792892100e+001dB,-1.74684088789147e+002°)
4.67735141287195e+005	(7.43302529842116e+001dB,-1.74815209827857e+002°)
4.78630092322635e+005	(7.43352452854375e+001dB,-1.74944022381809e+002°)
4.89778819368442e+005	(7.43399656197389e+001dB,-1.75070553821314e+002°)
5.01187233627268e+005	(7.43444230290278e+001dB,-1.75194832079060e+002°)
5.12861383991361e+005	(7.43486261811608e+001dB,-1.75316885530454e+002°)
5.24807460249768e+005	(7.43525833811585e+001dB,-1.75436742880481e+002°)
