Freq.	V(vin)/I(V1)
1.00000000000000e+003	(6.78890836926461e+001dB,1.45712466073546e+002°)
1.02329299228075e+003	(6.78206684985392e+001dB,1.45114245860534e+002°)
1.04712854805090e+003	(6.77501643054733e+001dB,1.44512247703406e+002°)
1.07151930523761e+003	(6.76775424426967e+001dB,1.43906762572417e+002°)
1.09647819614319e+003	(6.76027759318535e+001dB,1.43298091722594e+002°)
1.12201845430196e+003	(6.75258395878448e+001dB,1.42686546163542e+002°)
1.14815362149688e+003	(6.74467101147240e+001dB,1.42072446076406e+002°)
1.17489755493953e+003	(6.73653661958735e+001dB,1.41456120180274e+002°)
1.20226443461741e+003	(6.72817885777402e+001dB,1.40837905050841e+002°)
1.23026877081238e+003	(6.71959601464427e+001dB,1.40218144394641e+002°)
1.25892541179417e+003	(6.71078659966082e+001dB,1.39597188282674e+002°)
1.28824955169313e+003	(6.70174934918521e+001dB,1.38975392347678e+002°)
1.31825673855641e+003	(6.69248323163785e+001dB,1.38353116949751e+002°)
1.34896288259165e+003	(6.68298745172470e+001dB,1.37730726315361e+002°)
1.38038426460288e+003	(6.67326145369324e+001dB,1.37108587655127e+002°)
1.41253754462275e+003	(6.66330492358850e+001dB,1.36487070265992e+002°)
1.44543977074593e+003	(6.65311779048869e+001dB,1.35866544623618e+002°)
1.47910838816821e+003	(6.64270022670930e+001dB,1.35247381470932e+002°)
1.51356124843621e+003	(6.63205264697326e+001dB,1.34629950908836e+002°)
1.54881661891248e+003	(6.62117570655469e+001dB,1.34014621495045e+002°)
1.58489319246111e+003	(6.61007029841247e+001dB,1.33401759356951e+002°)
1.62181009735893e+003	(6.59873754933890e+001dB,1.32791727324242e+002°)
1.65958690743756e+003	(6.58717881515745e+001dB,1.32184884086771e+002°)
1.69824365246174e+003	(6.57539567501128e+001dB,1.31581583382909e+002°)
1.73780082874937e+003	(6.56338992479196e+001dB,1.30982173223232e+002°)
1.77827941003892e+003	(6.55116356976434e+001dB,1.30386995154042e+002°)
1.81970085860998e+003	(6.53871881644931e+001dB,1.29796383564754e+002°)
1.86208713666287e+003	(6.52605806383143e+001dB,1.29210665042707e+002°)
1.90546071796325e+003	(6.51318389396220e+001dB,1.28630157778488e+002°)
1.94984459975804e+003	(6.50009906203324e+001dB,1.28055171024306e+002°)
1.99526231496888e+003	(6.48680648599539e+001dB,1.27486004607435e+002°)
2.04173794466953e+003	(6.47330923580137e+001dB,1.26922948500231e+002°)
2.08929613085404e+003	(6.45961052234967e+001dB,1.26366282447669e+002°)
2.13796208950223e+003	(6.44571368620686e+001dB,1.25816275652877e+002°)
2.18776162394955e+003	(6.43162218618419e+001dB,1.25273186520610e+002°)
2.23872113856834e+003	(6.41733958784185e+001dB,1.24737262458172e+002°)
2.29086765276777e+003	(6.40286955199194e+001dB,1.24208739732855e+002°)
2.34422881531992e+003	(6.38821582326701e+001dB,1.23687843384534e+002°)
2.39883291901949e+003	(6.37338221881781e+001dB,1.23174787191760e+002°)
2.45470891568503e+003	(6.35837261719886e+001dB,1.22669773689302e+002°)
2.51188643150958e+003	(6.34319094749605e+001dB,1.22172994234865e+002°)
2.57039578276886e+003	(6.32784117874531e+001dB,1.21684629122460e+002°)
2.63026799189538e+003	(6.31232730968636e+001dB,1.21204847739714e+002°)
2.69153480392691e+003	(6.29665335889023e+001dB,1.20733808766258e+002°)
2.75422870333816e+003	(6.28082335529401e+001dB,1.20271660410237e+002°)
2.81838293126445e+003	(6.26484132917120e+001dB,1.19818540679921e+002°)
2.88403150312660e+003	(6.24871130356090e+001dB,1.19374577687350e+002°)
2.95120922666638e+003	(6.23243728617435e+001dB,1.18939889980983e+002°)
3.01995172040201e+003	(6.21602326179264e+001dB,1.18514586904330e+002°)
3.09029543251359e+003	(6.19947318516508e+001dB,1.18098768977636e+002°)
3.16227766016838e+003	(6.18279097441374e+001dB,1.17692528299763e+002°)
3.23593656929628e+003	(6.16598050494598e+001dB,1.17295948967533e+002°)
3.31131121482591e+003	(6.14904560387336e+001dB,1.16909107509932e+002°)
3.38844156139202e+003	(6.13199004493241e+001dB,1.16532073334717e+002°)
3.46736850452531e+003	(6.11481754390000e+001dB,1.16164909185124e+002°)
3.54813389233575e+003	(6.09753175449398e+001dB,1.15807671604554e+002°)
3.63078054770101e+003	(6.08013626474750e+001dB,1.15460411407278e+002°)
3.71535229097172e+003	(6.06263459384427e+001dB,1.15123174153387e+002°)
3.80189396320561e+003	(6.04503018940038e+001dB,1.14796000626391e+002°)
3.89045144994280e+003	(6.02732642517761e+001dB,1.14478927312059e+002°)
3.98107170553497e+003	(6.00952659921258e+001dB,1.14171986877250e+002°)
4.07380277804112e+003	(5.99163393234551e+001dB,1.13875208647702e+002°)
4.16869383470335e+003	(5.97365156713266e+001dB,1.13588619083864e+002°)
4.26579518801592e+003	(5.95558256712636e+001dB,1.13312242254064e+002°)
4.36515832240165e+003	(5.93742991650718e+001dB,1.13046100304445e+002°)
4.46683592150962e+003	(5.91919652005355e+001dB,1.12790213925251e+002°)
4.57088189614874e+003	(5.90088520343456e+001dB,1.12544602813208e+002°)
4.67735141287197e+003	(5.88249871381323e+001dB,1.12309286129845e+002°)
4.78630092322637e+003	(5.86403972074839e+001dB,1.12084282955764e+002°)
4.89778819368445e+003	(5.84551081738489e+001dB,1.11869612740959e+002°)
5.01187233627271e+003	(5.82691452192327e+001dB,1.11665295751415e+002°)
5.12861383991364e+003	(5.80825327936177e+001dB,1.11471353512288e+002°)
5.24807460249772e+003	(5.78952946350541e+001dB,1.11287809248095e+002°)
5.37031796370252e+003	(5.77074537923875e+001dB,1.11114688320387e+002°)
5.49540873857624e+003	(5.75190326506113e+001dB,1.10952018663493e+002°)
5.62341325190348e+003	(5.73300529588531e+001dB,1.10799831218940e+002°)
5.75439937337156e+003	(5.71405358610302e+001dB,1.10658160369241e+002°)
5.88843655355588e+003	(5.69505019292309e+001dB,1.10527044371789e+002°)
6.02559586074357e+003	(5.67599711999097e+001dB,1.10406525793600e+002°)
6.16595001861481e+003	(5.65689632130083e+001dB,1.10296651947702e+002°)
6.30957344480192e+003	(5.63774970541468e+001dB,1.10197475331977e+002°)
6.45654229034654e+003	(5.61855914000620e+001dB,1.10109054071238e+002°)
6.60693448007595e+003	(5.59932645674998e+001dB,1.10031452363360e+002°)
6.76082975391980e+003	(5.58005345658097e+001dB,1.09964740930206e+002°)
6.91830970918935e+003	(5.56074191535221e+001dB,1.09908997474087e+002°)
7.07945784384136e+003	(5.54139358992347e+001dB,1.09864307140434e+002°)
7.24435960074989e+003	(5.52201022471737e+001dB,1.09830762987254e+002°)
7.41310241300916e+003	(5.50259355878431e+001dB,1.09808466461887e+002°)
7.58577575029182e+003	(5.48314533342254e+001dB,1.09797527885433e+002°)
7.76247116628690e+003	(5.46366730040464e+001dB,1.09798066945056e+002°)
7.94328234724280e+003	(5.44416123086765e+001dB,1.09810213194239e+002°)
8.12830516164097e+003	(5.42462892492956e+001dB,1.09834106560785e+002°)
8.31763771102669e+003	(5.40507222210164e+001dB,1.09869897862154e+002°)
8.51138038202374e+003	(5.38549301257237e+001dB,1.09917749327391e+002°)
8.70963589956079e+003	(5.36589324944605e+001dB,1.09977835124559e+002°)
8.91250938133744e+003	(5.34627496202671e+001dB,1.10050341892170e+002°)
9.12010839355908e+003	(5.32664027024559e+001dB,1.10135469272648e+002°)
9.33254300796989e+003	(5.30699140033898e+001dB,1.10233430445275e+002°)
9.54992586021434e+003	(5.28733070189196e+001dB,1.10344452655473e+002°)
9.77237220955809e+003	(5.26766066637245e+001dB,1.10468777736550e+002°)
9.99999999999998e+003	(5.24798394728982e+001dB,1.10606662619221e+002°)
1.02329299228075e+004	(5.22830338212200e+001dB,1.10758379823310e+002°)
1.04712854805090e+004	(5.20862201616569e+001dB,1.10924217925044e+002°)
1.07151930523760e+004	(5.18894312847519e+001dB,1.11104481992208e+002°)
1.09647819614318e+004	(5.16927026006729e+001dB,1.11299493978247e+002°)
1.12201845430196e+004	(5.14960724458283e+001dB,1.11509593065056e+002°)
1.14815362149688e+004	(5.12995824161056e+001dB,1.11735135942868e+002°)
1.17489755493953e+004	(5.11032777289720e+001dB,1.11976497014148e+002°)
1.20226443461741e+004	(5.09072076169082e+001dB,1.12234068507015e+002°)
1.23026877081238e+004	(5.07114257549646e+001dB,1.12508260482216e+002°)
1.25892541179416e+004	(5.05159907256761e+001dB,1.12799500716307e+002°)
1.28824955169313e+004	(5.03209665252435e+001dB,1.13108234442340e+002°)
1.31825673855640e+004	(5.01264231158982e+001dB,1.13434923927923e+002°)
1.34896288259165e+004	(4.99324370309398e+001dB,1.13780047868765e+002°)
1.38038426460288e+004	(4.97390920413752e+001dB,1.14144100572824e+002°)
1.41253754462275e+004	(4.95464798969166e+001dB,1.14527590904336e+002°)
1.44543977074592e+004	(4.93547011600540e+001dB,1.14931040944338e+002°)
1.47910838816820e+004	(4.91638661611464e+001dB,1.15354984297122e+002°)
1.51356124843620e+004	(4.89740961164969e+001dB,1.15799963914443e+002°)
1.54881661891248e+004	(4.87855244719983e+001dB,1.16266529189836e+002°)
1.58489319246111e+004	(4.85982985633548e+001dB,1.16755231832943e+002°)
1.62181009735893e+004	(4.84125817177456e+001dB,1.17266619552924e+002°)
1.65958690743756e+004	(4.82285559467777e+001dB,1.17801225655394e+002°)
1.69824365246174e+004	(4.80464253487522e+001dB,1.18359550962586e+002°)
1.73780082874937e+004	(4.78664201187705e+001dB,1.18942031624569e+002°)
1.77827941003892e+004	(4.76888003522636e+001dB,1.19548982476050e+002°)
1.81970085860998e+004	(4.75138570487857e+001dB,1.20180502975117e+002°)
1.86208713666286e+004	(4.73419042814697e+001dB,1.20836340712150e+002°)
1.90546071796324e+004	(4.71732524628043e+001dB,1.21515747985351e+002°)
1.94984459975804e+004	(4.70081552693748e+001dB,1.22217462031391e+002°)
1.99526231496887e+004	(4.68467474258810e+001dB,1.22940030380556e+002°)
2.04173794466952e+004	(4.66890355220476e+001dB,1.23682544471543e+002°)
2.08929613085403e+004	(4.65350014992073e+001dB,1.24445293245557e+002°)
2.13796208950222e+004	(4.63847641629842e+001dB,1.25229583169433e+002°)
2.18776162394954e+004	(4.62386530836380e+001dB,1.26036771563096e+002°)
2.23872113856833e+004	(4.60971477415895e+001dB,1.26867408655879e+002°)
2.29086765276777e+004	(4.59607716042402e+001dB,1.27721027149632e+002°)
2.34422881531991e+004	(4.58300237826081e+001dB,1.28596366266185e+002°)
2.39883291901948e+004	(4.57053580149550e+001dB,1.29491656727906e+002°)
2.45470891568502e+004	(4.55871857432926e+001dB,1.30404803751660e+002°)
2.51188643150957e+004	(4.54758844505445e+001dB,1.31333467880074e+002°)
2.57039578276885e+004	(4.53718035202538e+001dB,1.32275087005989e+002°)
2.63026799189537e+004	(4.52752662082227e+001dB,1.33226874357730e+002°)
2.69153480392691e+004	(4.51865684775119e+001dB,1.34185811513201e+002°)
2.75422870333816e+004	(4.51059757776366e+001dB,1.35148645060877e+002°)
2.81838293126444e+004	(4.50337186518896e+001dB,1.36111890195322e+002°)
2.88403150312660e+004	(4.49699878086945e+001dB,1.37071842141334e+002°)
2.95120922666637e+004	(4.49149291084323e+001dB,1.38024595284204e+002°)
3.01995172040200e+004	(4.48686387970425e+001dB,1.38966069434776e+002°)
3.09029543251358e+004	(4.48311592395058e+001dB,1.39892042418851e+002°)
3.16227766016837e+004	(4.48024753503543e+001dB,1.40798188013427e+002°)
3.23593656929627e+004	(4.47825118719402e+001dB,1.41680118117121e+002°)
3.31131121482590e+004	(4.47711316075876e+001dB,1.42533427937187e+002°)
3.38844156139201e+004	(4.47681346733161e+001dB,1.43353742911064e+002°)
3.46736850452530e+004	(4.47732587884836e+001dB,1.44136766067346e+002°)
3.54813389233574e+004	(4.47861805838912e+001dB,1.44878324575567e+002°)
3.63078054770100e+004	(4.48065178676944e+001dB,1.45574414336396e+002°)
3.71535229097171e+004	(4.48338327570689e+001dB,1.46221241617278e+002°)
3.80189396320560e+004	(4.48676355587857e+001dB,1.46815260931691e+002°)
3.89045144994279e+004	(4.49073892658596e+001dB,1.47353208577622e+002°)
3.98107170553496e+004	(4.49525145306315e+001dB,1.47832131475711e+002°)
4.07380277804111e+004	(4.50023949766367e+001dB,1.48249411162955e+002°)
4.16869383470334e+004	(4.50563827212934e+001dB,1.48602782989450e+002°)
4.26579518801591e+004	(4.51138039971518e+001dB,1.48890350721829e+002°)
4.36515832240164e+004	(4.51739647792095e+001dB,1.49110596870723e+002°)
4.46683592150961e+004	(4.52361563474987e+001dB,1.49262389127693e+002°)
4.57088189614873e+004	(4.52996607357703e+001dB,1.49344983320714e+002°)
4.67735141287196e+004	(4.53637560368402e+001dB,1.49358023280970e+002°)
4.78630092322636e+004	(4.54277215515848e+001dB,1.49301537964748e+002°)
4.89778819368444e+004	(4.54908427806415e+001dB,1.49175936101514e+002°)
5.01187233627270e+004	(4.55524162650031e+001dB,1.48981998552973e+002°)
5.12861383991362e+004	(4.56117542837375e+001dB,1.48720868478222e+002°)
5.24807460249770e+004	(4.56681894142726e+001dB,1.48394039316738e+002°)
5.37031796370250e+004	(4.57210789536802e+001dB,1.48003340532646e+002°)
5.49540873857622e+004	(4.57698091890951e+001dB,1.47550921017590e+002°)
5.62341325190346e+004	(4.58137994929917e+001dB,1.47039230030821e+002°)
5.75439937337154e+004	(4.58525062058289e+001dB,1.46470995566692e+002°)
5.88843655355586e+004	(4.58854262559775e+001dB,1.45849200082129e+002°)
6.02559586074355e+004	(4.59121004562448e+001dB,1.45177053587593e+002°)
6.16595001861479e+004	(4.59321164089433e+001dB,1.44457964199964e+002°)
6.30957344480190e+004	(4.59451109483530e+001dB,1.43695506367694e+002°)
6.45654229034652e+004	(4.59507720512549e+001dB,1.42893387098835e+002°)
6.60693448007593e+004	(4.59488401532593e+001dB,1.42055410641371e+002°)
6.76082975391979e+004	(4.59391088207425e+001dB,1.41185442172653e+002°)
6.91830970918933e+004	(4.59214247447041e+001dB,1.40287371141266e+002°)
7.07945784384134e+004	(4.58956870427640e+001dB,1.39365074962633e+002°)
7.24435960074987e+004	(4.58618458774896e+001dB,1.38422383793574e+002°)
7.41310241300914e+004	(4.58199004217698e+001dB,1.37463047098340e+002°)
7.58577575029180e+004	(4.57698962234935e+001dB,1.36490702669823e+002°)
7.76247116628688e+004	(4.57119220408967e+001dB,1.35508848688121e+002°)
7.94328234724277e+004	(4.56461062354395e+001dB,1.34520819290491e+002°)
8.12830516164095e+004	(4.55726128200995e+001dB,1.33529763999557e+002°)
8.31763771102667e+004	(4.54916372670817e+001dB,1.32538631219465e+002°)
8.51138038202372e+004	(4.54034021800946e+001dB,1.31550155871158e+002°)
8.70963589956076e+004	(4.53081529328583e+001dB,1.30566851106389e+002°)
8.91250938133741e+004	(4.52061533680208e+001dB,1.29591003922281e+002°)
9.12010839355905e+004	(4.50976816399937e+001dB,1.28624674399281e+002°)
9.33254300796986e+004	(4.49830262723327e+001dB,1.27669698208322e+002°)
9.54992586021431e+004	(4.48624824861422e+001dB,1.26727691979223e+002°)
9.77237220955805e+004	(4.47363488414719e+001dB,1.25800061091217e+002°)
9.99999999999995e+004	(4.46049242195848e+001dB,1.24888009436328e+002°)
1.02329299228075e+005	(4.44685051609206e+001dB,1.23992550714155e+002°)
1.04712854805089e+005	(4.43273835619996e+001dB,1.23114520839157e+002°)
1.07151930523760e+005	(4.41818447246944e+001dB,1.22254591075185e+002°)
1.09647819614318e+005	(4.40321657433481e+001dB,1.21413281553160e+002°)
1.12201845430196e+005	(4.38786142091367e+001dB,1.20590974873314e+002°)
1.14815362149688e+005	(4.37214472067563e+001dB,1.19787929540494e+002°)
1.17489755493952e+005	(4.35609105757800e+001dB,1.19004293027395e+002°)
1.20226443461741e+005	(4.33972384076662e+001dB,1.18240114304570e+002°)
1.23026877081237e+005	(4.32306527491720e+001dB,1.17495355716401e+002°)
1.25892541179416e+005	(4.30613634835973e+001dB,1.16769904118231e+002°)
1.28824955169313e+005	(4.28895683626374e+001dB,1.16063581221062e+002°)
1.31825673855640e+005	(4.27154531634578e+001dB,1.15376153116665e+002°)
1.34896288259165e+005	(4.25391919477506e+001dB,1.14707338977719e+002°)
1.38038426460288e+005	(4.23609474018435e+001dB,1.14056818944991e+002°)
1.41253754462275e+005	(4.21808712393022e+001dB,1.13424241227106e+002°)
1.44543977074592e+005	(4.19991046497975e+001dB,1.12809228448450e+002°)
1.47910838816820e+005	(4.18157787802468e+001dB,1.12211383287868e+002°)
1.51356124843620e+005	(4.16310152363269e+001dB,1.11630293455340e+002°)
1.54881661891247e+005	(4.14449265943804e+001dB,1.11065536056411e+002°)
1.58489319246110e+005	(4.12576169154695e+001dB,1.10516681394971e+002°)
1.62181009735892e+005	(4.10691822548781e+001dB,1.09983296264648e+002°)
1.65958690743755e+005	(4.08797111617187e+001dB,1.09464946777654e+002°)
1.69824365246173e+005	(4.06892851644805e+001dB,1.08961200777899e+002°)
1.73780082874937e+005	(4.04979792393654e+001dB,1.08471629882587e+002°)
1.77827941003891e+005	(4.03058622591158e+001dB,1.07995811193640e+002°)
1.81970085860997e+005	(4.01129974207614e+001dB,1.07533328717276e+002°)
1.86208713666286e+005	(3.99194426513042e+001dB,1.07083774526920e+002°)
1.90546071796324e+005	(3.97252509908571e+001dB,1.06646749701587e+002°)
1.94984459975803e+005	(3.95304709531394e+001dB,1.06221865068864e+002°)
1.99526231496887e+005	(3.93351468635540e+001dB,1.05808741778786e+002°)
2.04173794466952e+005	(3.91393191753137e+001dB,1.05407011732175e+002°)
2.08929613085403e+005	(3.89430247642722e+001dB,1.05016317884541e+002°)
2.13796208950222e+005	(3.87462972032569e+001dB,1.04636314444298e+002°)
2.18776162394954e+005	(3.85491670167978e+001dB,1.04266666981927e+002°)
2.23872113856833e+005	(3.83516619172140e+001dB,1.03907052464797e+002°)
2.29086765276776e+005	(3.81538070230600e+001dB,1.03557159230590e+002°)
2.34422881531991e+005	(3.79556250609507e+001dB,1.03216686910704e+002°)
2.39883291901948e+005	(3.77571365517862e+001dB,1.02885346313611e+002°)
2.45470891568501e+005	(3.75583599823874e+001dB,1.02562859276877e+002°)
2.51188643150956e+005	(3.73593119635289e+001dB,1.02248958495446e+002°)
2.57039578276885e+005	(3.71600073753323e+001dB,1.01943387332801e+002°)
2.63026799189536e+005	(3.69604595009438e+001dB,1.01645899620756e+002°)
2.69153480392690e+005	(3.67606801493908e+001dB,1.01356259452868e+002°)
2.75422870333815e+005	(3.65606797684674e+001dB,1.01074240975805e+002°)
2.81838293126444e+005	(3.63604675484664e+001dB,1.00799628182412e+002°)
2.88403150312659e+005	(3.61600515175351e+001dB,1.00532214709750e+002°)
2.95120922666637e+005	(3.59594386293970e+001dB,1.00271803644916e+002°)
3.01995172040200e+005	(3.57586348441483e+001dB,1.00018207341118e+002°)
3.09029543251357e+005	(3.55576452028078e+001dB,9.97712472461323e+001°)
3.16227766016836e+005	(3.53564738962699e+001dB,9.95307537450251e+001°)
3.23593656929626e+005	(3.51551243292876e+001dB,9.92965660187742e+001°)
3.31131121482589e+005	(3.49535991800925e+001dB,9.90685319202396e+001°)
3.38844156139200e+005	(3.47519004562431e+001dB,9.88465078687606e+001°)
3.46736850452529e+005	(3.45500295472803e+001dB,9.86303587645127e+001°)
3.54813389233573e+005	(3.43479872747659e+001dB,9.84199579236307e+001°)
3.63078054770099e+005	(3.41457739402753e+001dB,9.82151870349896e+001°)
3.71535229097170e+005	(3.39433893719236e+001dB,9.80159361394239e+001°)
3.80189396320558e+005	(3.37408329700107e+001dB,9.78221036320621e+001°)
3.89045144994278e+005	(3.35381037523898e+001dB,9.76335962883345e+001°)
3.98107170553494e+005	(3.33352004001857e+001dB,9.74503293140916e+001°)
4.07380277804110e+005	(3.31321213045164e+001dB,9.72722264201212e+001°)
4.16869383470332e+005	(3.29288646149081e+001dB,9.70992199211812e+001°)
4.26579518801589e+005	(3.27254282901382e+001dB,9.69312508594520e+001°)
4.36515832240163e+005	(3.25218101522856e+001dB,9.67682691520531e+001°)
4.46683592150960e+005	(3.23180079448295e+001dB,9.66102337619444e+001°)
4.57088189614872e+005	(3.21140193956976e+001dB,9.64571128911381e+001°)
4.67735141287195e+005	(3.19098422862370e+001dB,9.63088841946529e+001°)
4.78630092322635e+005	(3.17054745271552e+001dB,9.61655350130427e+001°)
4.89778819368442e+005	(3.15009142425609e+001dB,9.60270626205934e+001°)
5.01187233627268e+005	(3.12961598633164e+001dB,9.58934744853905e+001°)
5.12861383991361e+005	(3.10912102309990e+001dB,9.57647885363828e+001°)
5.24807460249768e+005	(3.08860647138495e+001dB,9.56410334312685e+001°)
5.37031796370248e+005	(3.06807233361628e+001dB,9.55222488174994e+001°)
5.49540873857620e+005	(3.04751869226350e+001dB,9.54084855768680e+001°)
5.62341325190345e+005	(3.02694572592255e+001dB,9.52998060420090e+001°)
5.75439937337152e+005	(3.00635372721060e+001dB,9.51962841706562e+001°)
