time	V(vin)	V(vout)
0.000000000000000e+000	0.000000e+000	1.812096e-005
3.085937321650745e-012	3.708245e-009	1.812096e-005
6.171874643301489e-012	7.416490e-009	1.812096e-005
3.616718540974674e-009	4.346064e-006	1.813653e-005
7.227265207306046e-009	8.684710e-006	1.818778e-005
1.083781187363742e-008	1.302335e-005	1.827470e-005
1.444835853996879e-008	1.736199e-005	1.839730e-005
1.805890520630016e-008	2.170063e-005	1.855558e-005
2.166945187263154e-008	2.603926e-005	1.874952e-005
2.527999853896290e-008	3.037790e-005	1.897915e-005
5.055999707792580e-008	6.075551e-005	2.167323e-005
8.797887107354669e-008	1.057187e-004	2.939561e-005
1.338991354029895e-007	1.608942e-004	4.640063e-005
1.973173057340036e-007	2.370859e-004	8.353507e-005
2.729903718199804e-007	3.279826e-004	1.446987e-004
3.610399493546769e-007	4.337109e-004	2.313263e-004
4.657667981632346e-007	5.594008e-004	3.425764e-004
6.017820336515347e-007	7.225068e-004	4.838237e-004
7.680433109693788e-007	9.216166e-004	6.412301e-004
1.020710189575852e-006	1.223473e-003	8.549367e-004
1.296131740031015e-006	1.551219e-003	1.064609e-003
1.604725490031015e-006	1.916405e-003	1.274181e-003
1.913319240031015e-006	2.278955e-003	1.456678e-003
2.221912990031015e-006	2.638372e-003	1.611446e-003
2.530506740031015e-006	2.994162e-003	1.739881e-003
2.839100490031015e-006	3.345834e-003	1.843062e-003
3.147694240031014e-006	3.692906e-003	1.921910e-003
3.456287990031014e-006	4.034901e-003	1.977532e-003
3.764881740031014e-006	4.371348e-003	2.011058e-003
4.073475490031014e-006	4.701784e-003	2.023601e-003
4.382069240031014e-006	5.025756e-003	2.016298e-003
4.690662990031015e-006	5.342817e-003	1.990307e-003
4.999256740031015e-006	5.652533e-003	1.946784e-003
5.307850490031015e-006	5.954477e-003	1.886887e-003
5.616444240031016e-006	6.248233e-003	1.811775e-003
5.925037990031016e-006	6.533398e-003	1.722600e-003
6.233631740031016e-006	6.809581e-003	1.620504e-003
6.542225490031016e-006	7.076400e-003	1.506621e-003
6.850819240031017e-006	7.333490e-003	1.382065e-003
7.159412990031017e-006	7.580496e-003	1.247937e-003
7.468006740031017e-006	7.817080e-003	1.105315e-003
7.776600490031018e-006	8.042916e-003	9.552572e-004
8.085194240031018e-006	8.257693e-003	7.987967e-004
8.393787990031018e-006	8.461116e-003	6.369404e-004
8.702381740031019e-006	8.652905e-003	4.706678e-004
9.010975490031019e-006	8.832797e-003	3.009294e-004
9.628162990031019e-006	9.155917e-003	-4.529684e-005
1.024535049003102e-005	9.428699e-003	-3.947647e-004
1.086253799003102e-005	9.649642e-003	-7.410356e-004
1.147972549003102e-005	9.817532e-003	-1.078228e-003
1.209691299003102e-005	9.931447e-003	-1.401032e-003
1.240550674003102e-005	9.967956e-003	-1.555536e-003
1.271410049003102e-005	9.990758e-003	-1.704714e-003
1.333128799003102e-005	9.995143e-003	-1.985122e-003
1.394847549003102e-005	9.944574e-003	-2.238675e-003
1.456566299003102e-005	9.839331e-003	-2.462360e-003
1.518285049003103e-005	9.679992e-003	-2.653713e-003
1.580003799003102e-005	9.467433e-003	-2.810808e-003
1.641722549003102e-005	9.202824e-003	-2.932230e-003
1.672581924003103e-005	9.051444e-003	-2.979258e-003
1.703441299003103e-005	8.887618e-003	-3.017059e-003
1.734300674003103e-005	8.711573e-003	-3.045592e-003
1.765160049003103e-005	8.523549e-003	-3.064841e-003
1.796019424003103e-005	8.323805e-003	-3.074819e-003
1.826878799003103e-005	8.112618e-003	-3.075565e-003
1.857738174003103e-005	7.890276e-003	-3.067140e-003
1.888597549003103e-005	7.657084e-003	-3.049632e-003
1.919456924003103e-005	7.413365e-003	-3.023151e-003
1.950316299003103e-005	7.159453e-003	-2.987830e-003
2.012035049003103e-005	6.622459e-003	-2.891302e-003
2.073753799003103e-005	6.049056e-003	-2.761516e-003
2.135472549003103e-005	5.442396e-003	-2.600236e-003
2.197191299003103e-005	4.805814e-003	-2.409491e-003
2.228050674003103e-005	4.477390e-003	-2.303767e-003
2.258910049003103e-005	4.142810e-003	-2.191543e-003
2.320628799003103e-005	3.457029e-003	-1.948860e-003
2.413206924003103e-005	2.393928e-003	-1.544276e-003
2.505785049003103e-005	1.301230e-003	-1.099509e-003
2.598363174003103e-005	1.924448e-004	-6.245723e-004
2.690941299003104e-005	-9.187196e-004	-1.297809e-004
2.783519424003104e-005	-2.018525e-003	3.744425e-004
2.876097549003104e-005	-3.093376e-003	8.777594e-004
2.968675674003104e-005	-4.129983e-003	1.370092e-003
3.061253799003104e-005	-5.115529e-003	1.841788e-003
3.153831924003103e-005	-6.037831e-003	2.283770e-003
3.215550674003102e-005	-6.611896e-003	2.557750e-003
3.277269424003101e-005	-7.149610e-003	2.812508e-003
3.338988174003101e-005	-7.648015e-003	3.045942e-003
3.400706924003100e-005	-8.104372e-003	3.256141e-003
3.462425674003100e-005	-8.516173e-003	3.441394e-003
3.524144424003099e-005	-8.881152e-003	3.600200e-003
3.616722549003098e-005	-9.336513e-003	3.786081e-003
3.678441299003097e-005	-9.576251e-003	3.873657e-003
3.740160049003097e-005	-9.763339e-003	3.931290e-003
3.801878799003096e-005	-9.896748e-003	3.958502e-003
3.863597549003096e-005	-9.975746e-003	3.955046e-003
3.925316299003095e-005	-9.999898e-003	3.920907e-003
3.987035049003094e-005	-9.969072e-003	3.856304e-003
4.048753799003094e-005	-9.883437e-003	3.761679e-003
4.141331924003093e-005	-9.653329e-003	3.564964e-003
4.233910049003092e-005	-9.303874e-003	3.305389e-003
4.326488174003091e-005	-8.839394e-003	2.987117e-003
4.419066299003090e-005	-8.265631e-003	2.615257e-003
4.511644424003089e-005	-7.589677e-003	2.195774e-003
4.604222549003088e-005	-6.819891e-003	1.735387e-003
4.696800674003087e-005	-5.965789e-003	1.241455e-003
4.789378799003086e-005	-5.037931e-003	7.218629e-004
4.881956924003085e-005	-4.047788e-003	1.848894e-004
4.974535049003084e-005	-3.007601e-003	-3.609200e-004
5.067113174003083e-005	-1.930230e-003	-9.068879e-004
5.159691299003083e-005	-8.289960e-004	-1.444339e-003
5.252269424003082e-005	2.824876e-004	-1.964732e-003
5.344847549003081e-005	1.390479e-003	-2.459793e-003
5.437425674003080e-005	2.481279e-003	-2.921637e-003
5.530003799003079e-005	3.541403e-003	-3.342888e-003
5.622581924003078e-005	4.557743e-003	-3.716790e-003
5.715160049003077e-005	5.517735e-003	-4.037305e-003
5.807738174003076e-005	6.409511e-003	-4.299203e-003
5.869456924003075e-005	6.960645e-003	-4.439055e-003
5.962035049003075e-005	7.714704e-003	-4.594073e-003
6.054613174003074e-005	8.373383e-003	-4.681024e-003
6.147191299003073e-005	8.928542e-003	-4.698193e-003
6.239769424003072e-005	9.373314e-003	-4.644912e-003
6.301488174003071e-005	9.605730e-003	-4.570399e-003
6.363206924003070e-005	9.785335e-003	-4.465098e-003
6.455785049003070e-005	9.953640e-003	-4.250736e-003
6.548363174003069e-005	9.998887e-003	-3.971237e-003
6.640941299003068e-005	9.920515e-003	-3.630361e-003
6.733519424003067e-005	9.719495e-003	-3.232782e-003
6.826097549003066e-005	9.398310e-003	-2.784024e-003
6.918675674003065e-005	8.960931e-003	-2.290373e-003
7.011253799003064e-005	8.412766e-003	-1.758787e-003
7.103831924003063e-005	7.760593e-003	-1.196795e-003
7.196410049003062e-005	7.012474e-003	-6.123888e-004
7.288988174003061e-005	6.177658e-003	-1.390460e-005
7.381566299003060e-005	5.266466e-003	5.900961e-004
7.474144424003059e-005	4.290164e-003	1.190950e-003
7.566722549003058e-005	3.260822e-003	1.780018e-003
7.659300674003058e-005	2.191165e-003	2.348807e-003
7.751878799003057e-005	1.094419e-003	2.889092e-003
7.844456924003056e-005	-1.585792e-005	3.393036e-003
7.937035049003055e-005	-1.125939e-003	3.853298e-003
8.029613174003054e-005	-2.222100e-003	4.263140e-003
8.122191299003053e-005	-3.290788e-003	4.616524e-003
8.214769424003052e-005	-4.318791e-003	4.908193e-003
8.307347549003051e-005	-5.293401e-003	5.133749e-003
8.399925674003050e-005	-6.202567e-003	5.289717e-003
8.492503799003049e-005	-7.035050e-003	5.373588e-003
8.585081924003048e-005	-7.780556e-003	5.383861e-003
8.677660049003047e-005	-8.429870e-003	5.320059e-003
8.770238174003046e-005	-8.974963e-003	5.182742e-003
8.862816299003045e-005	-9.409097e-003	4.973493e-003
8.955394424003045e-005	-9.726905e-003	4.694901e-003
9.047972549003044e-005	-9.924456e-003	4.350523e-003
9.140550674003043e-005	-9.999310e-003	3.944837e-003
9.233128799003042e-005	-9.950540e-003	3.483176e-003
9.325706924003041e-005	-9.778749e-003	2.971660e-003
9.418285049003040e-005	-9.486062e-003	2.417109e-003
9.510863174003039e-005	-9.076095e-003	1.826947e-003
9.603441299003038e-005	-8.553919e-003	1.209105e-003
9.696019424003037e-005	-7.925990e-003	5.719073e-004
9.788597549003036e-005	-7.200070e-003	-7.603854e-005
9.881175674003035e-005	-6.385134e-003	-7.259625e-004
9.973753799003034e-005	-5.491257e-003	-1.369050e-003
1.006633192400303e-004	-4.529490e-003	-1.996565e-003
1.015891004900303e-004	-3.511724e-003	-2.599964e-003
1.025148817400303e-004	-2.450543e-003	-3.171019e-003
1.034406629900303e-004	-1.359064e-003	-3.701923e-003
1.043664442400303e-004	-2.507830e-004	-4.185401e-003
1.052922254900303e-004	8.605984e-004	-4.614807e-003
1.062180067400303e-004	1.961340e-003	-4.984210e-003
1.071437879900303e-004	3.037833e-003	-5.288483e-003
1.080695692400303e-004	4.076769e-003	-5.523365e-003
1.089953504900303e-004	5.065303e-003	-5.685520e-003
1.099211317400302e-004	5.991213e-003	-5.772585e-003
1.108469129900302e-004	6.843053e-003	-5.783198e-003
1.117726942400302e-004	7.610290e-003	-5.717021e-003
1.126984754900302e-004	8.283440e-003	-5.574739e-003
1.136242567400302e-004	8.854181e-003	-5.358054e-003
1.145500379900302e-004	9.315454e-003	-5.069665e-003
1.154758192400302e-004	9.661559e-003	-4.713225e-003
1.164016004900302e-004	9.888216e-003	-4.293302e-003
1.173273817400302e-004	9.992623e-003	-3.815307e-003
1.182531629900302e-004	9.973489e-003	-3.285431e-003
1.191789442400302e-004	9.831049e-003	-2.710558e-003
1.201047254900301e-004	9.567068e-003	-2.098178e-003
1.210305067400301e-004	9.184807e-003	-1.456280e-003
1.219562879900301e-004	8.688991e-003	-7.932539e-004
1.228820692400302e-004	8.085752e-003	-1.177764e-004
1.238078504900302e-004	7.382547e-003	5.613044e-004
1.247336317400302e-004	6.588069e-003	1.235085e-003
1.256594129900303e-004	5.712142e-003	1.894724e-003
1.265851942400303e-004	4.765595e-003	2.531557e-003
1.275109754900303e-004	3.760130e-003	3.137216e-003
1.284367567400303e-004	2.708177e-003	3.703732e-003
1.293625379900304e-004	1.622742e-003	4.223644e-003
1.302883192400304e-004	5.172456e-004	4.690096e-003
1.312141004900304e-004	-5.946460e-004	5.096929e-003
1.321398817400305e-004	-1.699186e-003	5.438755e-003
1.330656629900305e-004	-2.782718e-003	5.711035e-003
1.339914442400305e-004	-3.831848e-003	5.910133e-003
1.349172254900306e-004	-4.833603e-003	6.033366e-003
1.358430067400306e-004	-5.775599e-003	6.079037e-003
1.367687879900306e-004	-6.646190e-003	6.046456e-003
1.376945692400307e-004	-7.434614e-003	5.935954e-003
1.386203504900307e-004	-8.131120e-003	5.748872e-003
1.395461317400307e-004	-8.727102e-003	5.487544e-003
1.404719129900308e-004	-9.215186e-003	5.155271e-003
1.413976942400308e-004	-9.589343e-003	4.756275e-003
1.423234754900308e-004	-9.844944e-003	4.295641e-003
1.432492567400308e-004	-9.978830e-003	3.779254e-003
1.441750379900309e-004	-9.989345e-003	3.213725e-003
1.451008192400309e-004	-9.876360e-003	2.606298e-003
1.460266004900309e-004	-9.641272e-003	1.964762e-003
1.469523817400310e-004	-9.286986e-003	1.297347e-003
1.478781629900310e-004	-8.817883e-003	6.126190e-004
1.488039442400310e-004	-8.239763e-003	-8.063088e-005
1.497297254900311e-004	-7.559774e-003	-7.735011e-004
1.506555067400311e-004	-6.786320e-003	-1.457093e-003
1.515812879900311e-004	-5.928966e-003	-2.122627e-003
1.525070692400312e-004	-4.998311e-003	-2.761554e-003
1.534328504900312e-004	-4.005861e-003	-3.365666e-003
1.543586317400312e-004	-2.963886e-003	-3.927201e-003
1.552844129900313e-004	-1.885267e-003	-4.438945e-003
1.562101942400313e-004	-7.833404e-004	-4.894319e-003
1.571359754900313e-004	3.282708e-004	-5.287469e-003
1.580617567400314e-004	1.435824e-003	-5.613337e-003
1.589875379900314e-004	2.525625e-003	-5.867726e-003
1.599133192400314e-004	3.584201e-003	-6.047354e-003
1.608391004900314e-004	4.598466e-003	-6.149895e-003
1.617648817400315e-004	5.555878e-003	-6.174009e-003
1.626906629900315e-004	6.444602e-003	-6.119357e-003
1.636164442400315e-004	7.253650e-003	-5.986607e-003
1.645422254900316e-004	7.973019e-003	-5.777420e-003
1.654680067400316e-004	8.593816e-003	-5.494435e-003
1.663937879900316e-004	9.108366e-003	-5.141232e-003
1.673195692400317e-004	9.510309e-003	-4.722281e-003
1.682453504900317e-004	9.794671e-003	-4.242893e-003
1.691711317400317e-004	9.957941e-003	-3.709145e-003
1.700969129900318e-004	9.998099e-003	-3.127804e-003
1.710226942400318e-004	9.914648e-003	-2.506242e-003
1.719484754900318e-004	9.708620e-003	-1.852341e-003
1.728742567400319e-004	9.382562e-003	-1.174391e-003
1.738000379900319e-004	8.940506e-003	-4.809875e-004
1.747258192400319e-004	8.387916e-003	2.190825e-004
1.756516004900319e-004	7.731624e-003	9.169478e-004
1.765773817400320e-004	6.979745e-003	1.603768e-003
1.775031629900320e-004	6.141574e-003	2.270845e-003
1.784289442400320e-004	5.227474e-003	2.909733e-003
1.793547254900321e-004	4.248744e-003	3.512346e-003
1.802805067400321e-004	3.217487e-003	4.071060e-003
1.812062879900321e-004	2.146451e-003	4.578807e-003
1.821320692400322e-004	1.048878e-003	5.029169e-003
1.830578504900322e-004	-6.166220e-005	5.416454e-003
1.839836317400322e-004	-1.171440e-003	5.735769e-003
1.849094129900323e-004	-2.266736e-003	5.983083e-003
1.858351942400323e-004	-3.334007e-003	6.155274e-003
1.867609754900323e-004	-4.360059e-003	6.250171e-003
1.876867567400324e-004	-5.332206e-003	6.266580e-003
1.886125379900324e-004	-6.238431e-003	6.204296e-003
1.895383192400324e-004	-7.067529e-003	6.064110e-003
1.904641004900324e-004	-7.809248e-003	5.847792e-003
1.913898817400325e-004	-8.454422e-003	5.558072e-003
1.923156629900325e-004	-8.995070e-003	5.198605e-003
1.932414442400325e-004	-9.424510e-003	4.773923e-003
1.941672254900326e-004	-9.737435e-003	4.289376e-003
1.950930067400326e-004	-9.929972e-003	3.751068e-003
1.960187879900326e-004	-9.999743e-003	3.165777e-003
1.969445692400327e-004	-9.945885e-003	2.540867e-003
1.978703504900327e-004	-9.769064e-003	1.884200e-003
1.987961317400327e-004	-9.471467e-003	1.204033e-003
1.997219129900328e-004	-9.056771e-003	5.089152e-004
2.006476942400328e-004	-8.530105e-003	-1.924190e-004
2.015734754900328e-004	-7.897978e-003	-8.911618e-004
2.024992567400329e-004	-7.168208e-003	-1.578541e-003
2.034250379900329e-004	-6.349815e-003	-2.245932e-003
2.043508192400329e-004	-5.452918e-003	-2.884962e-003
2.052766004900330e-004	-4.488606e-003	-3.487621e-003
2.062023817400330e-004	-3.468800e-003	-4.046357e-003
2.071281629900330e-004	-2.406109e-003	-4.554173e-003
2.080539442400330e-004	-1.313670e-003	-5.004711e-003
2.089797254900331e-004	-2.049903e-004	-5.392340e-003
2.099055067400331e-004	9.062240e-004	-5.712213e-003
2.108312879900331e-004	2.006234e-003	-5.960338e-003
2.117570692400332e-004	3.081441e-003	-6.133623e-003
2.126828504900332e-004	4.118552e-003	-6.229917e-003
2.136086317400332e-004	5.104743e-003	-6.248029e-003
2.145344129900333e-004	6.027824e-003	-6.187752e-003
2.154601942400333e-004	6.876382e-003	-6.049859e-003
2.163859754900333e-004	7.639925e-003	-5.836094e-003
2.173117567400334e-004	8.309014e-003	-5.549148e-003
2.182375379900334e-004	8.875377e-003	-5.192628e-003
2.191633192400334e-004	9.332012e-003	-4.771010e-003
2.200891004900335e-004	9.673273e-003	-4.289581e-003
2.210148817400335e-004	9.894942e-003	-3.754372e-003
2.219406629900335e-004	9.994277e-003	-3.172088e-003
2.228664442400335e-004	9.970050e-003	-2.550014e-003
2.237922254900336e-004	9.822562e-003	-1.895933e-003
2.247180067400336e-004	9.553636e-003	-1.218021e-003
2.256437879900336e-004	9.166596e-003	-5.247516e-004
2.265695692400337e-004	8.666227e-003	1.752163e-004
2.274953504900337e-004	8.058716e-003	8.731430e-004
2.284211317400337e-004	7.351573e-003	1.560318e-003
2.293469129900338e-004	6.553541e-003	2.228169e-003
2.302726942400338e-004	5.674486e-003	2.868369e-003
2.311984754900338e-004	4.725276e-003	3.472938e-003
2.321242567400339e-004	3.717647e-003	4.034347e-003
2.330500379900339e-004	2.664056e-003	4.545605e-003
2.339758192400339e-004	1.577528e-003	5.000352e-003
2.349016004900340e-004	4.714970e-004	5.392934e-003
2.358273817400340e-004	-6.403633e-004	5.718475e-003
2.367531629900340e-004	-1.744307e-003	5.972938e-003
2.376789442400341e-004	-2.826685e-003	6.153170e-003
2.386047254900341e-004	-3.874116e-003	6.256947e-003
2.395305067400341e-004	-4.873650e-003	6.282998e-003
2.404562879900341e-004	-5.812931e-003	6.231022e-003
2.413820692400342e-004	-6.680345e-003	6.101686e-003
2.423078504900342e-004	-7.465168e-003	5.896625e-003
2.432336317400342e-004	-8.157698e-003	5.618412e-003
2.441594129900342e-004	-8.749373e-003	5.270534e-003
2.450851942400342e-004	-9.232878e-003	4.857338e-003
2.460109754900341e-004	-9.602234e-003	4.383990e-003
2.469367567400341e-004	-9.852875e-003	3.856394e-003
2.478625379900340e-004	-9.981704e-003	3.281133e-003
2.487883192400340e-004	-9.987126e-003	2.665377e-003
2.497141004900339e-004	-9.869076e-003	2.016799e-003
2.506398817400339e-004	-9.629012e-003	1.343475e-003
2.515656629900338e-004	-9.269902e-003	6.537879e-004
2.524914442400338e-004	-8.796187e-003	-4.368107e-005
2.534172254900337e-004	-8.213723e-003	-7.402564e-004
2.543430067400337e-004	-7.529710e-003	-1.427277e-003
2.552687879900336e-004	-6.752606e-003	-2.096205e-003
2.561945692400336e-004	-5.892019e-003	-2.738729e-003
2.571203504900335e-004	-4.958587e-003	-3.346870e-003
2.580461317400335e-004	-3.963850e-003	-3.913080e-003
2.589719129900334e-004	-2.920108e-003	-4.430333e-003
2.598976942400334e-004	-1.840264e-003	-4.892215e-003
2.608234754900333e-004	-7.376684e-004	-5.293003e-003
2.617492567400333e-004	3.740472e-004	-5.627735e-003
2.626750379900332e-004	1.481138e-003	-5.892269e-003
2.636008192400332e-004	2.569918e-003	-6.083340e-003
2.645266004900331e-004	3.626925e-003	-6.198594e-003
2.654523817400331e-004	4.639092e-003	-6.236619e-003
2.663781629900330e-004	5.593904e-003	-6.196965e-003
2.673039442400330e-004	6.479558e-003	-6.080145e-003
2.682297254900329e-004	7.285104e-003	-5.887629e-003
2.691555067400329e-004	8.000582e-003	-5.621829e-003
2.700812879900328e-004	8.617148e-003	-5.286061e-003
2.710070692400328e-004	9.127177e-003	-4.884513e-003
2.719328504900327e-004	9.524366e-003	-4.422186e-003
2.728586317400327e-004	9.803803e-003	-3.904834e-003
2.737844129900326e-004	9.962033e-003	-3.338891e-003
2.747101942400326e-004	9.997101e-003	-2.731392e-003
2.756359754900325e-004	9.908572e-003	-2.089887e-003
2.765617567400325e-004	9.697542e-003	-1.422343e-003
2.774875379900324e-004	9.366618e-003	-7.370480e-004
2.784133192400324e-004	8.919893e-003	-4.250922e-005
2.793391004900323e-004	8.362889e-003	6.526560e-004
2.802648817400323e-004	7.702494e-003	1.339825e-003
2.811906629900322e-004	6.946871e-003	2.010476e-003
2.821164442400322e-004	6.105362e-003	2.656295e-003
2.830422254900321e-004	5.188371e-003	3.269280e-003
2.839680067400321e-004	4.207235e-003	3.841837e-003
2.848937879900320e-004	3.174084e-003	4.366875e-003
2.858195692400320e-004	2.101692e-003	4.837896e-003
2.867453504900319e-004	1.003315e-003	5.249072e-003
2.876711317400319e-004	-1.074652e-004	5.595320e-003
2.885969129900318e-004	-1.216917e-003	5.872361e-003
2.895226942400318e-004	-2.311324e-003	6.076779e-003
2.904484754900317e-004	-3.377155e-003	6.206054e-003
2.913742567400317e-004	-4.401234e-003	6.258602e-003
2.923000379900316e-004	-5.370900e-003	6.233788e-003
2.932258192400316e-004	-6.274164e-003	6.131937e-003
2.941516004900315e-004	-7.099859e-003	5.954329e-003
2.950773817400315e-004	-7.837777e-003	5.703180e-003
2.960031629900314e-004	-8.478795e-003	5.381619e-003
2.969289442400314e-004	-9.014988e-003	4.993645e-003
