time	V(vin)	V(vout)
0.000000000000000e+000	0.000000e+000	1.812096e-005
4.595703158305486e-012	3.681646e-009	1.812096e-005
9.191406316610973e-012	7.363292e-009	1.812096e-005
5.386164101534032e-009	4.314890e-006	1.814032e-005
1.076313679675145e-008	8.622414e-006	1.821702e-005
1.614010949196888e-008	1.292994e-005	1.835108e-005
2.151708218718629e-008	1.723746e-005	1.854248e-005
2.689405488240371e-008	2.154497e-005	1.879123e-005
3.227102757762114e-008	2.585249e-005	1.909733e-005
3.764800027283854e-008	3.016000e-005	1.946077e-005
7.529600054567709e-008	6.031972e-005	2.365776e-005
1.201206948409608e-007	9.622794e-005	3.309896e-005
1.806038686137085e-007	1.446778e-004	5.415080e-005
2.486952577491514e-007	1.992181e-004	8.811140e-005
3.328886586652332e-007	2.666475e-004	1.409822e-004
4.282304291950816e-007	3.429907e-004	2.077227e-004
5.530109372107808e-007	4.428755e-004	2.954137e-004
7.260045269582199e-007	5.812788e-004	4.076466e-004
9.754992258017415e-007	7.806832e-004	5.523505e-004
1.231341741288335e-006	9.848365e-004	6.838691e-004
1.690912053788335e-006	1.350461e-003	8.893211e-004
2.150482366288335e-006	1.714256e-003	1.060093e-003
2.610052678788335e-006	2.075727e-003	1.193064e-003
3.069622991288335e-006	2.434385e-003	1.290990e-003
3.529193303788334e-006	2.789743e-003	1.356311e-003
3.988763616288334e-006	3.141321e-003	1.391465e-003
4.448333928788334e-006	3.488641e-003	1.399036e-003
4.907904241288334e-006	3.831233e-003	1.381496e-003
5.367474553788334e-006	4.168632e-003	1.341312e-003
5.827044866288334e-006	4.500382e-003	1.280918e-003
6.286615178788333e-006	4.826033e-003	1.202667e-003
6.746185491288333e-006	5.145142e-003	1.108854e-003
7.205755803788333e-006	5.457279e-003	1.001691e-003
7.665326116288334e-006	5.762019e-003	8.832993e-004
8.124896428788334e-006	6.058950e-003	7.557054e-004
8.584466741288334e-006	6.347670e-003	6.208356e-004
9.044037053788333e-006	6.627786e-003	4.805111e-004
9.503607366288333e-006	6.898920e-003	3.364451e-004
9.963177678788333e-006	7.160703e-003	1.902411e-004
1.042274799128833e-005	7.412782e-003	4.339166e-005
1.088231830378833e-005	7.654814e-003	-1.027217e-004
1.134188861628833e-005	7.886472e-003	-2.468281e-004
1.180145892878833e-005	8.107441e-003	-3.877661e-004
1.226102924128833e-005	8.317422e-003	-5.244818e-004
1.272059955378833e-005	8.516131e-003	-6.560269e-004
1.318016986628833e-005	8.703297e-003	-7.815555e-004
1.363974017878833e-005	8.878669e-003	-9.003216e-004
1.409931049128833e-005	9.042006e-003	-1.011675e-003
1.455888080378833e-005	9.193090e-003	-1.115059e-003
1.501845111628833e-005	9.331713e-003	-1.210005e-003
1.547802142878833e-005	9.457690e-003	-1.296129e-003
1.593759174128833e-005	9.570848e-003	-1.373128e-003
1.639716205378834e-005	9.671035e-003	-1.440775e-003
1.685673236628834e-005	9.758116e-003	-1.498915e-003
1.731630267878834e-005	9.831971e-003	-1.547461e-003
1.777587299128834e-005	9.892500e-003	-1.586390e-003
1.823544330378834e-005	9.939623e-003	-1.615737e-003
1.869501361628834e-005	9.973274e-003	-1.635593e-003
1.915458392878835e-005	9.993408e-003	-1.646100e-003
1.961415424128835e-005	9.999999e-003	-1.647445e-003
2.007372455378835e-005	9.993036e-003	-1.639861e-003
2.053329486628835e-005	9.972530e-003	-1.623616e-003
2.145243549128835e-005	9.891016e-003	-1.566397e-003
2.237157611628836e-005	9.755900e-003	-1.478589e-003
2.329071674128836e-005	9.567913e-003	-1.363384e-003
2.420985736628836e-005	9.328074e-003	-1.224271e-003
2.558856830378837e-005	8.874011e-003	-9.788766e-004
2.650770892878837e-005	8.510826e-003	-7.963674e-004
2.742684955378837e-005	8.101517e-003	-6.032121e-004
2.834599017878838e-005	7.648304e-003	-4.031984e-004
2.926513080378838e-005	7.153641e-003	-2.000031e-004
3.018427142878838e-005	6.620211e-003	2.856109e-006
3.110341205378839e-005	6.050903e-003	2.020622e-004
3.202255267878839e-005	5.448803e-003	3.945334e-004
3.294169330378839e-005	4.817174e-003	5.774515e-004
3.386083392878839e-005	4.159439e-003	7.482857e-004
3.477997455378840e-005	3.479162e-003	9.048095e-004
3.569911517878840e-005	2.780031e-003	1.045114e-003
3.661825580378840e-005	2.065834e-003	1.167616e-003
3.753739642878841e-005	1.340441e-003	1.271061e-003
3.845653705378841e-005	6.077843e-004	1.354523e-003
3.937567767878841e-005	-1.281666e-004	1.417401e-003
4.029481830378842e-005	-8.634229e-004	1.459409e-003
4.121395892878842e-005	-1.594000e-003	1.480568e-003
4.259266986628842e-005	-2.672443e-003	1.473969e-003
4.397138080378843e-005	-3.718319e-003	1.423405e-003
4.535009174128843e-005	-4.718880e-003	1.332293e-003
4.672880267878844e-005	-5.661934e-003	1.205105e-003
4.810751361628844e-005	-6.535988e-003	1.047178e-003
4.948622455378845e-005	-7.330390e-003	8.645075e-004
5.086493549128845e-005	-8.035459e-003	6.635369e-004
5.224364642878846e-005	-8.642602e-003	4.509460e-004
5.362235736628846e-005	-9.144421e-003	2.334425e-004
5.500106830378847e-005	-9.534799e-003	1.756488e-005
5.637977924128847e-005	-9.808981e-003	-1.905000e-004
5.775849017878847e-005	-9.963624e-003	-3.850806e-004
5.913720111628848e-005	-9.996843e-003	-5.611609e-004
6.051591205378848e-005	-9.908234e-003	-7.144952e-004
6.189462299128848e-005	-9.698876e-003	-8.416948e-004
6.327333392878849e-005	-9.371323e-003	-9.402861e-004
6.465204486628849e-005	-8.929563e-003	-1.008738e-003
6.603075580378850e-005	-8.378982e-003	-1.046463e-003
6.740946674128850e-005	-7.726288e-003	-1.053786e-003
6.878817767878850e-005	-6.979438e-003	-1.031894e-003
7.016688861628851e-005	-6.147531e-003	-9.827566e-004
7.154559955378851e-005	-5.240706e-003	-9.090333e-004
7.292431049128852e-005	-4.270014e-003	-8.139593e-004
7.430302142878852e-005	-3.247286e-003	-7.012237e-004
7.522216205378853e-005	-2.542690e-003	-6.182268e-004
7.660087299128853e-005	-1.461174e-003	-4.850705e-004
7.797958392878854e-005	-3.618516e-004	-3.453077e-004
7.935829486628854e-005	7.418809e-004	-2.031634e-004
8.073700580378854e-005	1.836572e-003	-6.271088e-005
8.211571674128855e-005	2.908882e-003	7.224019e-005
8.349442767878855e-005	3.945742e-003	1.982423e-004
8.487313861628856e-005	4.934517e-003	3.122930e-004
8.625184955378856e-005	5.863157e-003	4.118996e-004
8.763056049128857e-005	6.720344e-003	4.951265e-004
8.900927142878857e-005	7.495632e-003	5.606223e-004
9.038798236628858e-005	8.179573e-003	6.076287e-004
9.176669330378858e-005	8.763834e-003	6.359707e-004
9.314540424128859e-005	9.241291e-003	6.460302e-004
9.452411517878859e-005	9.606129e-003	6.387033e-004
9.590282611628860e-005	9.853899e-003	6.153457e-004
9.728153705378860e-005	9.981585e-003	5.777054e-004
9.866024799128860e-005	9.987626e-003	5.278485e-004
1.000389589287886e-004	9.871953e-003	4.680781e-004
1.014176698662886e-004	9.635973e-003	4.008510e-004
1.027963808037886e-004	9.282563e-003	3.286937e-004
1.041750917412886e-004	8.816029e-003	2.541209e-004
1.055538026787886e-004	8.242058e-003	1.795586e-004
1.064729433037886e-004	7.803124e-003	1.309844e-004
1.073920839287886e-004	7.321903e-003	8.404697e-005
1.083112245537886e-004	6.801003e-003	3.931532e-005
1.096899354912886e-004	5.951482e-003	-2.254224e-005
1.110686464287887e-004	5.029432e-003	-7.683390e-005
1.124473573662887e-004	4.046090e-003	-1.224349e-004
1.138260683037887e-004	3.013440e-003	-1.585765e-004
1.152047792412887e-004	1.944066e-003	-1.848498e-004
1.165834901787887e-004	8.510008e-004	-2.011989e-004
1.179622011162887e-004	-2.524356e-004	-2.079018e-004
1.193409120537887e-004	-1.352796e-003	-2.055436e-004
1.207196229912887e-004	-2.436670e-003	-1.949795e-004
1.220983339287887e-004	-3.490849e-003	-1.772922e-004
1.234770448662887e-004	-4.502486e-003	-1.537437e-004
1.248557558037886e-004	-5.459253e-003	-1.257238e-004
1.262344667412886e-004	-6.349490e-003	-9.469762e-005
1.276131776787885e-004	-7.162348e-003	-6.215189e-005
1.289918886162885e-004	-7.887920e-003	-2.954454e-005
1.303705995537885e-004	-8.517366e-003	1.743248e-006
1.317493104912884e-004	-9.043013e-003	3.045004e-005
1.331280214287884e-004	-9.458455e-003	5.547133e-005
1.345067323662884e-004	-9.758631e-003	7.589001e-005
1.358854433037883e-004	-9.939881e-003	9.099947e-005
1.372641542412883e-004	-9.999997e-003	1.003188e-004
1.386428651787883e-004	-9.938247e-003	1.036000e-004
1.400215761162882e-004	-9.755382e-003	1.008280e-004
1.414002870537882e-004	-9.453633e-003	9.221171e-005
1.427789979912881e-004	-9.036674e-003	7.817009e-005
1.441577089287881e-004	-8.509588e-003	5.931041e-005
1.455364198662881e-004	-7.878800e-003	3.640213e-005
1.469151308037880e-004	-7.151995e-003	1.034630e-005
1.482938417412880e-004	-6.338031e-003	-1.785811e-005
1.496725526787880e-004	-5.446827e-003	-4.714988e-005
1.510512636162879e-004	-4.489245e-003	-7.644184e-005
1.524299745537879e-004	-3.476953e-003	-1.046569e-004
1.538086854912879e-004	-2.422290e-003	-1.307625e-004
1.551873964287878e-004	-1.338106e-003	-1.538027e-004
1.565661073662878e-004	-2.376159e-004	-1.729266e-004
1.579448183037878e-004	8.657702e-004	-1.874128e-004
1.593235292412877e-004	1.958606e-003	-1.966896e-004
1.607022401787877e-004	3.027572e-003	-2.003490e-004
1.620809511162876e-004	4.059643e-003	-1.981563e-004
1.634596620537876e-004	5.042240e-003	-1.900536e-004
1.648383729912876e-004	5.963388e-003	-1.761584e-004
1.662170839287875e-004	6.811863e-003	-1.567565e-004
1.675957948662875e-004	7.577324e-003	-1.322905e-004
1.689745058037875e-004	8.250443e-003	-1.033440e-004
1.703532167412874e-004	8.823016e-003	-7.062196e-005
1.717319276787874e-004	9.288066e-003	-3.492866e-005
1.731106386162874e-004	9.639926e-003	2.857247e-006
1.744893495537873e-004	9.874307e-003	4.180851e-005
1.758680604912873e-004	9.988353e-003	8.097586e-005
1.772467714287872e-004	9.980674e-003	1.194143e-004
1.786254823662872e-004	9.851364e-003	1.562084e-004
1.800041933037872e-004	9.601999e-003	1.904963e-004
1.813829042412871e-004	9.235618e-003	2.214909e-004
1.827616151787871e-004	8.756684e-003	2.484985e-004
1.841403261162871e-004	8.171037e-003	2.709349e-004
1.855190370537870e-004	7.485811e-003	2.883366e-004
1.868977479912870e-004	6.709359e-003	3.003699e-004
1.882764589287870e-004	5.851141e-003	3.068348e-004
1.896551698662869e-004	4.921618e-003	3.076665e-004
1.910338808037869e-004	3.932117e-003	3.029321e-004
1.924125917412868e-004	2.894696e-003	2.928248e-004
1.937913026787868e-004	1.821998e-003	2.776545e-004
1.951700136162868e-004	7.270969e-004	2.578360e-004
1.965487245537867e-004	-3.766656e-004	2.338752e-004
1.979274354912867e-004	-1.475838e-003	2.063529e-004
1.993061464287867e-004	-2.557024e-003	1.759082e-004
2.006848573662866e-004	-3.607049e-003	1.432206e-004
2.020635683037866e-004	-4.613116e-003	1.089921e-004
2.034422792412866e-004	-5.562965e-003	7.392999e-005
2.048209901787865e-004	-6.445020e-003	3.872955e-005
2.061997011162865e-004	-7.248531e-003	4.058973e-006
2.075784120537865e-004	-7.963707e-003	-2.945494e-005
2.089571229912864e-004	-8.581831e-003	-6.123891e-005
2.103358339287864e-004	-9.095373e-003	-9.078333e-005
2.117145448662863e-004	-9.498071e-003	-1.176501e-004
2.130932558037863e-004	-9.785020e-003	-1.414785e-004
2.144719667412863e-004	-9.952721e-003	-1.619883e-004
2.158506776787862e-004	-9.999133e-003	-1.789806e-004
2.172293886162862e-004	-9.923688e-003	-1.923375e-004
2.186080995537862e-004	-9.727307e-003	-2.020183e-004
2.199868104912861e-004	-9.412382e-003	-2.080552e-004
2.213655214287861e-004	-8.982752e-003	-2.105469e-004
2.227442323662861e-004	-8.443651e-003	-2.096511e-004
2.241229433037860e-004	-7.801651e-003	-2.055763e-004
2.255016542412860e-004	-7.064574e-003	-1.985726e-004
2.268803651787859e-004	-6.241404e-003	-1.889225e-004
2.282590761162859e-004	-5.342172e-003	-1.769320e-004
2.296377870537859e-004	-4.377837e-003	-1.629209e-004
2.310164979912858e-004	-3.360150e-003	-1.472149e-004
2.323952089287858e-004	-2.301515e-003	-1.301375e-004
2.337739198662858e-004	-1.214832e-003	-1.120034e-004
2.351526308037857e-004	-1.133436e-004	-9.311214e-005
2.365313417412857e-004	9.895258e-004	-7.374398e-005
2.379100526787857e-004	2.080336e-003	-5.415588e-005
2.392887636162856e-004	3.145794e-003	-3.457928e-005
2.406674745537856e-004	4.172915e-003	-1.521873e-005
2.420461854912856e-004	5.149182e-003	3.748230e-006
2.434248964287855e-004	6.062699e-003	2.217040e-005
2.448036073662855e-004	6.902330e-003	3.992130e-005
2.461823183037855e-004	7.657846e-003	5.689687e-005
2.475610292412854e-004	8.320037e-003	7.301271e-005
2.489397401787854e-004	8.880836e-003	8.820090e-005
2.503184511162854e-004	9.333406e-003	1.024067e-004
2.516971620537853e-004	9.672233e-003	1.155849e-004
2.530758729912853e-004	9.893188e-003	1.276972e-004
2.544545839287853e-004	9.993578e-003	1.387087e-004
2.558332948662852e-004	9.972180e-003	1.485854e-004
2.572120058037852e-004	9.829254e-003	1.572925e-004
2.585907167412851e-004	9.566542e-003	1.647925e-004
2.599694276787851e-004	9.187246e-003	1.710448e-004
2.613481386162851e-004	8.695987e-003	1.760052e-004
2.627268495537850e-004	8.098754e-003	1.796262e-004
2.641055604912850e-004	7.402824e-003	1.818587e-004
2.654842714287850e-004	6.616678e-003	1.826527e-004
2.668629823662849e-004	5.749897e-003	1.819604e-004
2.682416933037849e-004	4.813044e-003	1.797379e-004
2.696204042412849e-004	3.817536e-003	1.759481e-004
2.709991151787848e-004	2.775504e-003	1.705643e-004
2.723778261162848e-004	1.699649e-003	1.635721e-004
2.737565370537847e-004	6.030806e-004	1.549734e-004
2.751352479912847e-004	-5.008375e-004	1.447881e-004
2.765139589287847e-004	-1.598652e-003	1.330573e-004
2.778926698662846e-004	-2.676984e-003	1.198445e-004
2.792713808037846e-004	-3.722693e-003	1.052379e-004
2.806500917412846e-004	-4.723034e-003	8.935046e-005
2.820288026787845e-004	-5.665818e-003	7.232047e-005
2.834075136162845e-004	-6.539554e-003	5.431112e-005
2.847862245537845e-004	-7.333594e-003	3.550924e-005
2.861649354912844e-004	-8.038263e-003	1.612353e-005
2.875436464287844e-004	-8.644972e-003	-3.617990e-006
2.889223573662844e-004	-9.146327e-003	-2.347105e-005
2.903010683037843e-004	-9.536219e-003	-4.317877e-005
2.916797792412843e-004	-9.809896e-003	-6.247581e-005
2.930584901787842e-004	-9.964025e-003	-8.109279e-005
2.944372011162842e-004	-9.996723e-003	-9.876107e-005
2.958159120537842e-004	-9.907596e-003	-1.152176e-004
2.971946229912841e-004	-9.697728e-003	-1.302100e-004
2.985733339287841e-004	-9.369677e-003	-1.435012e-004
2.999520448662841e-004	-8.927440e-003	-1.548740e-004
3.013307558037840e-004	-8.376408e-003	-1.641361e-004
3.027094667412840e-004	-7.723296e-003	-1.711229e-004
3.040881776787840e-004	-6.976062e-003	-1.757021e-004
3.054668886162839e-004	-6.143813e-003	-1.777758e-004
3.068455995537839e-004	-5.236692e-003	-1.772829e-004
3.082243104912838e-004	-4.265753e-003	-1.742007e-004
3.096030214287838e-004	-3.242828e-003	-1.685459e-004
3.109817323662838e-004	-2.180385e-003	-1.603743e-004
3.123604433037837e-004	-1.091369e-003	-1.497803e-004
3.137391542412837e-004	1.094635e-005	-1.368957e-004
3.151178651787837e-004	1.113128e-003	-1.218872e-004
3.164965761162836e-004	2.201745e-003	-1.049544e-004
3.178752870537836e-004	3.263530e-003	-8.632603e-005
3.192539979912836e-004	4.285544e-003	-6.625630e-005
3.206327089287835e-004	5.255330e-003	-4.502090e-005
3.220114198662835e-004	6.161072e-003	-2.291242e-005
3.233901308037835e-004	6.991731e-003	-2.356541e-007
3.247688417412834e-004	7.737184e-003	2.269729e-005
3.261475526787834e-004	8.388347e-003	4.557185e-005
3.275262636162833e-004	8.937283e-003	6.807590e-005
3.289049745537833e-004	9.377304e-003	8.990450e-005
3.302836854912833e-004	9.703047e-003	1.107644e-004
3.316623964287832e-004	9.910542e-003	1.303782e-004
3.330411073662832e-004	9.997260e-003	1.484884e-004
3.344198183037832e-004	9.962145e-003	1.648608e-004
3.357985292412831e-004	9.805624e-003	1.792875e-004
3.371772401787831e-004	9.529606e-003	1.915895e-004
3.385559511162831e-004	9.137454e-003	2.016187e-004
3.399346620537830e-004	8.633947e-003	2.092594e-004
3.413133729912830e-004	8.025221e-003	2.144293e-004
3.426920839287829e-004	7.318693e-003	2.170801e-004
3.440707948662829e-004	6.522975e-003	2.171972e-004
3.454495058037829e-004	5.647765e-003	2.147995e-004
3.468282167412828e-004	4.703726e-003	2.099382e-004
3.482069276787828e-004	3.702365e-003	2.026955e-004
3.495856386162828e-004	2.655884e-003	1.931830e-004
3.509643495537827e-004	1.577037e-003	1.815394e-004
3.523430604912827e-004	4.789711e-004	1.679282e-004
3.537217714287827e-004	-6.249319e-004	1.525351e-004
3.551004823662826e-004	-1.721219e-003	1.355655e-004
3.564791933037826e-004	-2.796530e-003	1.172410e-004
3.578579042412825e-004	-3.837761e-003	9.779699e-005
3.592366151787825e-004	-4.832223e-003	7.747905e-005
3.606153261162825e-004	-5.767795e-003	5.654014e-005
3.619940370537824e-004	-6.633077e-003	3.523744e-005
3.633727479912824e-004	-7.417525e-003	1.382931e-005
3.647514589287824e-004	-8.111577e-003	-7.427694e-006
3.661301698662823e-004	-8.706776e-003	-2.828165e-005
3.675088808037823e-004	-9.195869e-003	-4.848797e-005
3.688875917412823e-004	-9.572894e-003	-6.781204e-005
3.702663026787822e-004	-9.833259e-003	-8.603156e-005
3.716450136162822e-004	-9.973788e-003	-1.029388e-004
3.730237245537822e-004	-9.992770e-003	-1.183427e-004
3.744024354912821e-004	-9.889973e-003	-1.320707e-004
3.757811464287821e-004	-9.666651e-003	-1.439701e-004
3.771598573662820e-004	-9.325525e-003	-1.539102e-004
3.785385683037820e-004	-8.870751e-003	-1.617825e-004
3.799172792412820e-004	-8.307872e-003	-1.675027e-004
3.812959901787819e-004	-7.643748e-003	-1.710106e-004
3.826747011162819e-004	-6.886472e-003	-1.722713e-004
3.840534120537819e-004	-6.045274e-003	-1.712749e-004
3.854321229912818e-004	-5.130403e-003	-1.680370e-004
3.868108339287818e-004	-4.153010e-003	-1.625984e-004
3.881895448662818e-004	-3.125005e-003	-1.550244e-004
3.895682558037817e-004	-2.058917e-003	-1.454045e-004
3.909469667412817e-004	-9.677382e-004	-1.338512e-004
3.923256776787816e-004	1.352346e-004	-1.204991e-004
3.937043886162816e-004	1.236559e-003	-1.055032e-004
3.950830995537816e-004	2.322814e-003	-8.903783e-005
3.964618104912815e-004	3.380762e-003	-7.129421e-005
3.978405214287815e-004	4.397510e-003	-5.247889e-005
3.992192323662815e-004	5.360666e-003	-3.281133e-005
4.005979433037814e-004	6.258494e-003	-1.252163e-005
4.019766542412814e-004	7.080052e-003	8.152086e-006
4.033553651787814e-004	7.815327e-003	2.896622e-005
4.047340761162813e-004	8.455360e-003	4.967451e-005
4.061127870537813e-004	8.992350e-003	7.003086e-005
4.074914979912813e-004	9.419753e-003	8.979216e-005
4.088702089287812e-004	9.732361e-003	1.087212e-004
4.102489198662812e-004	9.926364e-003	1.265894e-004
4.116276308037811e-004	9.999397e-003	1.431799e-004
4.130063417412811e-004	9.950571e-003	1.582899e-004
4.143850526787811e-004	9.780481e-003	1.717332e-004
4.157637636162810e-004	9.491200e-003	1.833431e-004
4.171424745537810e-004	9.086251e-003	1.929740e-004
4.185211854912810e-004	8.570572e-003	2.005035e-004
4.198998964287809e-004	7.950447e-003	2.058342e-004
4.212786073662809e-004	7.233432e-003	2.088952e-004
4.226573183037809e-004	6.428265e-003	2.096428e-004
4.240360292412808e-004	5.544759e-003	2.080615e-004
4.254147401787808e-004	4.593682e-003	2.041643e-004
4.267934511162807e-004	3.586622e-003	1.979929e-004
4.281721620537807e-004	2.535853e-003	1.896170e-004
4.295508729912807e-004	1.454181e-003	1.791339e-004
4.309295839287806e-004	3.547876e-004	1.666673e-004
4.323082948662806e-004	-7.489299e-004	1.523660e-004
4.336870058037806e-004	-1.843520e-003	1.364019e-004
4.350657167412805e-004	-2.915644e-003	1.189681e-004
4.364444276787805e-004	-3.952236e-003	1.002767e-004
4.378231386162805e-004	-4.940664e-003	8.055576e-005
4.392018495537804e-004	-5.868881e-003	6.004698e-005
4.405805604912804e-004	-6.725576e-003	3.900228e-005
4.419592714287804e-004	-7.500309e-003	1.768079e-005
4.433379823662803e-004	-8.183639e-003	-3.654431e-006
4.447166933037803e-004	-8.767236e-003	-2.473971e-005
